#Parameters = {d=9.5051559838931; d_passa_faixa=11.118252561128; e=3.984381e-11; l=5; p=10.89725559975; p_passa_faixa=11.773094507628; phi=0; r=281.16907657059; theta=0; u=1.2566e-06; w=1.9837076625897; w_passa_faixa=0.13385049465315; z_fss=0.2}
#"Frequency / GHz"	"SZmax(1),Zmax(1) (2) [Real/Imaginary Part] [Re]"	"SZmax(1),Zmax(1) (2) [Real/Imaginary Part] [Im]"
#---------------------------------------------------------------------------------------------------------------------
1.0000000000000	-0.046949937241429	-0.11712410180898
1.0240000000000	-0.049450893724026	-0.11937140013240
1.0480000000000	-0.052004874333540	-0.12157700114926
1.0720000000000	-0.054611189107267	-0.12373998216276
1.0960000000000	-0.057269134548213	-0.12585943272021
1.1200000000000	-0.059977993847689	-0.12793445474438
1.1440000000000	-0.062737037106486	-0.12996416266147
1.1680000000000	-0.065545521554603	-0.13194768352592
1.1920000000000	-0.068402691769542	-0.13388415714229
1.2160000000000	-0.071307779893222	-0.13577273618415
1.2400000000000	-0.074260005847512	-0.13761258631030
1.2640000000000	-0.077258577548400	-0.13940288627834
1.2880000000000	-0.080302691118867	-0.14114282805575
1.3120000000000	-0.083391531100495	-0.14283161692857
1.3360000000000	-0.086524270663816	-0.14446847160786
1.3600000000000	-0.089700071817496	-0.14605262433393
1.3840000000000	-0.092918085616391	-0.14758332097859
1.4080000000000	-0.096177452368491	-0.14905982114536
1.4320000000000	-0.099477301840873	-0.15048139826792
1.4560000000000	-0.10281675346465	-0.15184733970665
1.4800000000000	-0.10619491653906	-0.15315694684361
1.5040000000000	-0.10961089043464	-0.15440953517580
1.5280000000000	-0.11306376479571	-0.15560443440695
1.5520000000000	-0.11655261974209	-0.15674098853776
1.5760000000000	-0.12007652607015	-0.15781855595481
1.6000000000000	-0.12363454545338	-0.15883650951806
1.6240000000000	-0.12722573064236	-0.15979423664703
1.6480000000000	-0.13084912566439	-0.16069113940579
1.6720000000000	-0.13450376602268	-0.16152663458673
1.6960000000000	-0.13818867889531	-0.16230015379307
1.7200000000000	-0.14190288333399	-0.16301114352032
1.7440000000000	-0.14564539046263	-0.16365906523662
1.7680000000000	-0.14941520367597	-0.16424339546196
1.7920000000000	-0.15321131883802	-0.16476362584634
1.8160000000000	-0.15703272448084	-0.16521926324691
1.8400000000000	-0.16087840200326	-0.16560982980400
1.8640000000000	-0.16474732586998	-0.16593486301622
1.8880000000000	-0.16863846381090	-0.16619391581442
1.9120000000000	-0.17255077702087	-0.16638655663466
1.9360000000000	-0.17648322035982	-0.16651236949017
1.9600000000000	-0.18043474255353	-0.16657095404219
1.9840000000000	-0.18440428639482	-0.16656192566983
2.0080000000000	-0.18839078894551	-0.16648491553873
2.0320000000000	-0.19239318173903	-0.16633957066870
2.0560000000000	-0.19641039098383	-0.16612555400027
2.0800000000000	-0.20044133776763	-0.16584254445994
2.1040000000000	-0.20448493826249	-0.16549023702435
2.1280000000000	-0.20854010393090	-0.16506834278317
2.1520000000000	-0.21260574173288	-0.16457658900079
2.1760000000000	-0.21668075433405	-0.16401471917661
2.2000000000000	-0.22076404031486	-0.16338249310406
2.2240000000000	-0.22485449438099	-0.16267968692814
2.2480000000000	-0.22895100757484	-0.16190609320162
2.2720000000000	-0.23305246748837	-0.16106152093964
2.2960000000000	-0.23715775847712	-0.16014579567279
2.3200000000000	-0.24126576187562	-0.15915875949858
2.3440000000000	-0.24537535621401	-0.15810027113126
2.3680000000000	-0.24948541743622	-0.15697020594987
2.3920000000000	-0.25359481911931	-0.15576845604448
2.4160000000000	-0.25770243269448	-0.15449493026064
2.4400000000000	-0.26180712766928	-0.15314955424182
2.4640000000000	-0.26590777185150	-0.15173227046990
2.4880000000000	-0.27000323157434	-0.15024303830359
2.5120000000000	-0.27409237192321	-0.14868183401467
2.5360000000000	-0.27817405696392	-0.14704865082210
2.5600000000000	-0.28224714997245	-0.14534349892376
2.5840000000000	-0.28631051366615	-0.14356640552588
2.6080000000000	-0.29036301043648	-0.14171741487004
2.6320000000000	-0.29440350258322	-0.13979658825762
2.6560000000000	-0.29843085255018	-0.13780400407172
2.6800000000000	-0.30244392316238	-0.13573975779639
2.7040000000000	-0.30644157786463	-0.13360396203309
2.7280000000000	-0.31042268096167	-0.13139674651441
2.7520000000000	-0.31438609785960	-0.12911825811482
2.7760000000000	-0.31833069530880	-0.12676866085850
2.8000000000000	-0.32225534164808	-0.12434813592410
2.8240000000000	-0.32615890705037	-0.12185688164637
2.8480000000000	-0.33004026376948	-0.11929511351461
2.8720000000000	-0.33389828638828	-0.11666306416788
2.8960000000000	-0.33773185206801	-0.11396098338671
2.9200000000000	-0.34153984079879	-0.11118913808159
2.9440000000000	-0.34532113565125	-0.10834781227783
2.9680000000000	-0.34907462302924	-0.10543730709686
2.9920000000000	-0.35279919292355	-0.10245794073397
3.0160000000000	-0.35649373916655	-0.099410048432172
3.0400000000000	-0.36015715968783	-0.096293982452532
3.0640000000000	-0.36378835677056	-0.093110112040419
3.0880000000000	-0.36738623730871	-0.089858823387953
3.1120000000000	-0.37094971306488	-0.086540519592476
3.1360000000000	-0.37447770092890	-0.083155620610987
3.1600000000000	-0.37796912317683	-0.079704563210443
3.1840000000000	-0.38142290773050	-0.076187800913922
3.2080000000000	-0.38483798841750	-0.072605803942584
3.2320000000000	-0.38821330523140	-0.068959059153383
3.2560000000000	-0.39154780459225	-0.065248069972414
3.2800000000000	-0.39484043960718	-0.061473356323924
3.3040000000000	-0.39809017033111	-0.057635454554896
3.3280000000000	-0.40129596402737	-0.053734917355209
3.3520000000000	-0.40445679542824	-0.049772313673246
3.3760000000000	-0.40757164699516	-0.045748228627009
3.4000000000000	-0.41063950917877	-0.041663263410614
3.4240000000000	-0.41365938067834	-0.037518035196227
3.4480000000000	-0.41663026870083	-0.033313177031310
3.4720000000000	-0.41955118921924	-0.029049337731248
3.4960000000000	-0.42242116723021	-0.024727181767231
3.5200000000000	-0.42523923701080	-0.020347389149468
3.5440000000000	-0.42800444237438	-0.015910655305634
3.5680000000000	-0.43071583692531	-0.011417690954588
3.5920000000000	-0.43337248431262	-0.0068692219753132
3.6160000000000	-0.43597345848229	-0.0022659892711057
3.6400000000000	-0.43851784392816	0.0023912513710378
3.6640000000000	-0.44100473594139	0.0071017294257895
3.6880000000000	-0.44343324085823	0.011864659779665
3.7120000000000	-0.44580247630608	0.016679242885943
3.7360000000000	-0.44811157144771	0.021544664924376
3.7600000000000	-0.45035966722353	0.026460097965643
3.7840000000000	-0.45254591659170	0.031424700140567
3.8080000000000	-0.45466948476616	0.036437615814028
3.8320000000000	-0.45672954945224	0.041497975763597
3.8560000000000	-0.45872530107992	0.046604897362860
3.8800000000000	-0.46065594303450	0.051757484769368
3.9040000000000	-0.46252069188463	0.056954829117225
3.9280000000000	-0.46431877760755	0.062196008714254
3.9520000000000	-0.46604944381144	0.067480089243720
3.9760000000000	-0.46771194795482	0.072806123970539
4.0000000000000	-0.46930556156276	0.078173153951963
4.0240000000000	-0.47082957043990	0.083580208252675
4.0480000000000	-0.47228327488009	0.089026304164233
4.0720000000000	-0.47366598987269	0.094510447428824
4.0960000000000	-0.47497704530514	0.10003163246727
4.1200000000000	-0.47621578616203	0.10558884261121
4.1440000000000	-0.47738157272027	0.11118105033938
4.1680000000000	-0.47847378074046	0.11680721751801
4.1920000000000	-0.47949180165424	0.12246629564511
4.2160000000000	-0.48043504274756	0.12815722609873
4.2400000000000	-0.48130292733977	0.13387894038902
4.2640000000000	-0.48209489495843	0.13963036041401
4.2880000000000	-0.48281040150975	0.14541039871914
4.3120000000000	-0.48344891944451	0.15121795876025
4.3360000000000	-0.48400993791949	0.15705193517014
4.3600000000000	-0.48449296295417	0.16291121402849
4.3840000000000	-0.48489751758277	0.16879467313513
4.4080000000000	-0.48522314200135	0.17470118228643
4.4320000000000	-0.48546939371011	0.18062960355487
4.4560000000000	-0.48563584765067	0.18657879157157
4.4800000000000	-0.48572209633820	0.19254759381174
4.5040000000000	-0.48572774998857	0.19853485088294
4.5280000000000	-0.48565243664013	0.20453939681596
4.5520000000000	-0.48549580227029	0.21056005935834
4.5760000000000	-0.48525751090673	0.21659566027030
4.6000000000000	-0.48493724473324	0.22264501562308
4.6240000000000	-0.48453470418998	0.22870693609942
4.6480000000000	-0.48404960806835	0.23478022729624
4.6720000000000	-0.48348169360018	0.24086369002924
4.6960000000000	-0.48283071654134	0.24695612063940
4.7200000000000	-0.48209645124962	0.25305631130125
4.7440000000000	-0.48127869075694	0.25916305033273
4.7680000000000	-0.48037724683574	0.26527512250656
4.7920000000000	-0.47939195005965	0.27139130936295
4.8160000000000	-0.47832264985822	0.27751038952365
4.8400000000000	-0.47716921456584	0.28363113900699
4.8640000000000	-0.47593153146480	0.28975233154399
4.8880000000000	-0.47460950682232	0.29587273889531
4.9120000000000	-0.47320306592178	0.30199113116891
4.9360000000000	-0.47171215308785	0.30810627713836
4.9600000000000	-0.47013673170580	0.31421694456152
4.9840000000000	-0.46847678423467	0.32032190049964
5.0080000000000	-0.46673231221460	0.32641991163664
5.0320000000000	-0.46490333626807	0.33250974459843
5.0560000000000	-0.46298989609516	0.33859016627222
5.0800000000000	-0.46099205046290	0.34465994412559
5.1040000000000	-0.45890987718854	0.35071784652528
5.1280000000000	-0.45674347311690	0.35676264305548
5.1520000000000	-0.45449295409175	0.36279310483558
5.1760000000000	-0.45215845492129	0.36880800483721
5.2000000000000	-0.44974012933764	0.37480611820035
5.2240000000000	-0.44723814995048	0.38078622254862
5.2480000000000	-0.44465270819483	0.38674709830331
5.2720000000000	-0.44198401427297	0.39268752899631
5.2960000000000	-0.43923229709053	0.39860630158162
5.3200000000000	-0.43639780418687	0.40450220674543
5.3440000000000	-0.43348080165971	0.41037403921452
5.3680000000000	-0.43048157408402	0.41622059806308
5.3920000000000	-0.42740042442537	0.42204068701753
5.4160000000000	-0.42423767394758	0.42783311475953
5.4400000000000	-0.42099366211490	0.43359669522676
5.4640000000000	-0.41766874648870	0.43933024791166
5.4880000000000	-0.41426330261867	0.44503259815775
5.5120000000000	-0.41077772392873	0.45070257745359
5.5360000000000	-0.40721242159756	0.45633902372418
5.5600000000000	-0.40356782443397	0.46194078161971
5.5840000000000	-0.39984437874698	0.46750670280165
5.6080000000000	-0.39604254821089	0.47303564622585
5.6320000000000	-0.39216281372532	0.47852647842283
5.6560000000000	-0.38820567327019	0.48397807377488
5.6800000000000	-0.38417164175593	0.48938931479015
5.7040000000000	-0.38006125086882	0.49475909237337
5.7280000000000	-0.37587504891164	0.50008630609330
5.7520000000000	-0.37161360063967	0.50536986444670
5.7760000000000	-0.36727748709212	0.51060868511887
5.8000000000000	-0.36286730541914	0.51580169524044
5.8240000000000	-0.35838366870437	0.52094783164058
5.8480000000000	-0.35382720578331	0.52604604109643
5.8720000000000	-0.34919856105738	0.53109528057860
5.8960000000000	-0.34449839430397	0.53609451749281
5.9200000000000	-0.33972738048241	0.54104272991754
5.9440000000000	-0.33488620953608	0.54593890683753
5.9680000000000	-0.32997558619071	0.55078204837320
5.9920000000000	-0.32499622974886	0.55557116600587
6.0160000000000	-0.31994887388095	0.56030528279863
6.0400000000000	-0.31483426641263	0.56498343361301
6.0640000000000	-0.30965316910881	0.56960466532113
6.0880000000000	-0.30440635745436	0.57416803701346
6.1120000000000	-0.29909462043160	0.57867262020211
6.1360000000000	-0.29371876029471	0.58311749901955
6.1600000000000	-0.28827959234107	0.58750177041271
6.1840000000000	-0.28277794467981	0.59182454433250
6.2080000000000	-0.27721465799748	0.59608494391859
6.2320000000000	-0.27159058532111	0.60028210567954
6.2560000000000	-0.26590659177860	0.60441517966811
6.2800000000000	-0.26016355435679	0.60848332965183
6.3040000000000	-0.25436236165700	0.61248573327874
6.3280000000000	-0.24850391364843	0.61642158223826
6.3520000000000	-0.24258912141938	0.62029008241725
6.3760000000000	-0.23661890692641	0.62409045405114
6.4000000000000	-0.23059420274160	0.62782193187009
6.4240000000000	-0.22451595179795	0.63148376524033
6.4480000000000	-0.21838510713309	0.63507521830052
6.4720000000000	-0.21220263163134	0.63859557009305
6.4960000000000	-0.20596949776430	0.64204411469053
6.5200000000000	-0.19968668732999	0.64542016131722
6.5440000000000	-0.19335519119077	0.64872303446543
6.5680000000000	-0.18697600900995	0.65195207400708
6.5920000000000	-0.18055014898743	0.65510663530012
6.6160000000000	-0.17407862759425	0.65818608929009
6.6400000000000	-0.16756246930633	0.66118982260661
6.6640000000000	-0.16100270633739	0.66411723765497
6.6880000000000	-0.15440037837118	0.66696775270273
6.7120000000000	-0.14775653229316	0.66974080196135
6.7360000000000	-0.14107222192166	0.67243583566289
6.7600000000000	-0.13434850773867	0.67505232013183
6.7840000000000	-0.12758645662034	0.67758973785194
6.8080000000000	-0.12078714156728	0.68004758752825
6.8320000000000	-0.11395164143478	0.68242538414420
6.8560000000000	-0.10708104066297	0.68472265901391
6.8800000000000	-0.10017642900717	0.68693895982965
6.9040000000000	-0.093238901268295	0.68907385070453
6.9280000000000	-0.086269557023612	0.69112691221038
6.9520000000000	-0.079269500357830	0.69309774141097
6.9760000000000	-0.072239839594629	0.69498595189044
7.0000000000000	-0.065181687028724	0.69679117377716
7.0240000000000	-0.058096158658548	0.69851305376287
7.0480000000000	-0.050984373919621	0.70015125511728
7.0720000000000	-0.043847455418723	0.70170545769809
7.0960000000000	-0.036686528668900	0.70317535795649
7.1200000000000	-0.029502721825431	0.70456066893820
7.1440000000000	-0.022297165422805	0.70586112028006
7.1680000000000	-0.015070992112797	0.70707645820220
7.1920000000000	-0.0078253364037084	0.70820644549594
7.2160000000000	-0.00056133440084913	0.70925086150732
7.2400000000000	0.0067198764516578	0.71020950211637
7.2640000000000	0.014017157627696	0.71108217971224
7.2880000000000	0.021329369774519	0.71186872316412
7.3120000000000	0.028655372966590	0.71256897778804
7.3360000000000	0.035994026957842	0.71318280530966
7.3600000000000	0.043344191432286	0.71371008382304
7.3840000000000	0.050704726252898	0.71415070774544
7.4080000000000	0.058074491708746	0.71450458776824
7.4320000000000	0.065452348760277	0.71477165080400
7.4560000000000	0.072837159282712	0.71495183992975
7.4800000000000	0.080227786307498	0.71504511432656
7.5040000000000	0.087623094261750	0.71505144921536
7.5280000000000	0.095021949205655	0.71497083578928
7.5520000000000	0.10242321906775	0.71480328114225
7.5760000000000	0.10982577387804	0.71454880819428
7.6000000000000	0.11722848599896	0.71420745561313
7.6240000000000	0.12463023035401	0.71377927773275
7.6480000000000	0.13202988465413	0.71326434446823
7.6720000000000	0.13942632962177	0.71266274122765
7.6960000000000	0.14681844921247	0.71197456882060
7.7200000000000	0.15420513083416	0.71119994336364
7.7440000000000	0.16158526556385	0.71033899618256
7.7680000000000	0.16895774836194	0.70939187371180
7.7920000000000	0.17632147828387	0.70835873739071
7.8160000000000	0.18367535868933	0.70723976355705
7.8400000000000	0.19101829744874	0.70603514333761
7.8640000000000	0.19834920714715	0.70474508253600
7.8880000000000	0.20566700528545	0.70336980151780
7.9120000000000	0.21297061447892	0.70190953509303
7.9360000000000	0.22025896265299	0.70036453239601
7.9600000000000	0.22753098323626	0.69873505676272
7.9840000000000	0.23478561535076	0.69702138560564
8.0080000000000	0.24202180399939	0.69522381028626
8.0320000000000	0.24923850025054	0.69334263598518
8.0560000000000	0.25643466141985	0.69137818156992
8.0800000000000	0.26360925124907	0.68933077946061
8.1040000000000	0.27076124008210	0.68720077549337
8.1280000000000	0.27788960503808	0.68498852878170
8.1520000000000	0.28499333018152	0.68269441157577
8.1760000000000	0.29207140668958	0.68031880911978
8.2000000000000	0.29912283301630	0.67786211950736
8.2240000000000	0.30614661505393	0.67532475353512
8.2480000000000	0.31314176629125	0.67270713455443
8.2720000000000	0.32010730796893	0.67000969832140
8.2960000000000	0.32704226923183	0.66723289284524
8.3200000000000	0.33394568727837	0.66437717823497
8.3440000000000	0.34081660750683	0.66144302654457
8.3680000000000	0.34765408365860	0.65843092161662
8.3920000000000	0.35445717795854	0.65534135892451
8.4160000000000	0.36122496125212	0.65217484541324
8.4400000000000	0.36795651313966	0.64893189933886
8.4640000000000	0.37465092210750	0.64561305010675
8.4880000000000	0.38130728565610	0.64221883810851
8.5120000000000	0.38792471042511	0.63874981455782
8.5360000000000	0.39450231231543	0.63520654132512
8.5600000000000	0.40103921660821	0.63158959077128
8.5840000000000	0.40753455808081	0.62789954558022
8.6080000000000	0.41398748111972	0.62413699859064
8.6320000000000	0.42039713983047	0.62030255262676
8.6560000000000	0.42676269814453	0.61639682032839
8.6800000000000	0.43308332992311	0.61242042398001
8.7040000000000	0.43935821905807	0.60837399533925
8.7280000000000	0.44558655956970	0.60425817546464
8.7520000000000	0.45176755570159	0.60007361454275
8.7760000000000	0.45790042201247	0.59582097171468
8.8000000000000	0.46398438346509	0.59150091490211
8.8240000000000	0.47001867551208	0.58711412063277
8.8480000000000	0.47600254417893	0.58266127386556
8.8720000000000	0.48193524614397	0.57814306781520
8.8960000000000	0.48781604881537	0.57356020377663
8.9200000000000	0.49364423040537	0.56891339094901
8.9440000000000	0.49941908000138	0.56420334625957
8.9680000000000	0.50513989763438	0.55943079418718
8.9920000000000	0.51080599434435	0.55459646658583
9.0160000000000	0.51641669224279	0.54970110250795
9.0400000000000	0.52197132457249	0.54474544802769
9.0640000000000	0.52746923576441	0.53973025606414
9.0880000000000	0.53290978149172	0.53465628620463
9.1120000000000	0.53829232872106	0.52952430452801
9.1360000000000	0.54361625576107	0.52433508342813
9.1600000000000	0.54888095230804	0.51908940143737
9.1840000000000	0.55408581948896	0.51378804305041
9.2080000000000	0.55923026990167	0.50843179854822
9.2320000000000	0.56431372765246	0.50302146382227
9.2560000000000	0.56933562839091	0.49755784019915
9.2800000000000	0.57429541934206	0.49204173426538
9.3040000000000	0.57919255933596	0.48647395769272
9.3280000000000	0.58402651883455	0.48085532706386
9.3520000000000	0.58879677995604	0.47518666369853
9.3760000000000	0.59350283649658	0.46946879348017
9.4000000000000	0.59814419394946	0.46370254668302
9.4240000000000	0.60272036952177	0.45788875779989
9.4480000000000	0.60723089214850	0.45202826537041
9.4720000000000	0.61167530250422	0.44612191180999
9.4960000000000	0.61605315301223	0.44017054323939
9.5200000000000	0.62036400785133	0.43417500931502
9.5440000000000	0.62460744296016	0.42813616305991
9.5680000000000	0.62878304603911	0.42205486069548
9.5920000000000	0.63289041654993	0.41593196147411
9.6160000000000	0.63692916571298	0.40976832751242
9.6400000000000	0.64089891650213	0.40356482362556
9.6640000000000	0.64479930363744	0.39732231716221
9.6880000000000	0.64862997357552	0.39104167784060
9.7120000000000	0.65239058449770	0.38472377758540
9.7360000000000	0.65608080629601	0.37836949036557
9.7600000000000	0.65970032055688	0.37197969203320
9.7840000000000	0.66324882054284	0.36555526016340
9.8080000000000	0.66672601117193	0.35909707389511
9.8320000000000	0.67013160899520	0.35260601377312
9.8560000000000	0.67346534217194	0.34608296159104
9.8800000000000	0.67672695044307	0.33952880023546
9.9040000000000	0.67991618510233	0.33294441353121
9.9280000000000	0.68303280896563	0.32633068608774
9.9520000000000	0.68607659633837	0.31968850314675
9.9760000000000	0.68904733298086	0.31301875043094
10.000000000000	0.69194481607183	0.30632231399401
10.024000000000	0.69476885417009	0.29960008007189
10.048000000000	0.69751926717430	0.29285293493526
10.072000000000	0.70019588628100	0.28608176474324
10.096000000000	0.70279855394082	0.27928745539852
