#Parameters = {d=9.5051559838931; d_passa_faixa=11.118252561128; e=3.984381e-11; l=5; p=10.89725559975; p_passa_faixa=11.773094507628; phi=0; r=281.16907657059; theta=0; u=1.2566e-06; w=1.9837076625897; w_passa_faixa=0.13385049465315; z_fss=0.2}
#"Frequency / GHz"	"SZmin(1),Zmax(1) (2) [Real/Imaginary Part] [Re]"	"SZmin(1),Zmax(1) (2) [Real/Imaginary Part] [Im]"
#---------------------------------------------------------------------------------------------------------------------
1.0000000000000	0.90021122268443	-0.38852718127027
1.0240000000000	0.89582285636635	-0.39702554107631
1.0480000000000	0.89134109319782	-0.40546845298193
1.0720000000000	0.88676670029042	-0.41385475754449
1.0960000000000	0.88210045990911	-0.42218330668122
1.1200000000000	0.87734316929858	-0.43045296385426
1.1440000000000	0.87249564050813	-0.43866260425319
1.1680000000000	0.86755870021527	-0.44681111497509
1.1920000000000	0.86253318954787	-0.45489739520210
1.2160000000000	0.85741996390501	-0.46292035637663
1.2400000000000	0.85221989277650	-0.47087892237410
1.2640000000000	0.84693385956111	-0.47877202967333
1.2880000000000	0.84156276138348	-0.48659862752459
1.3120000000000	0.83610750890977	-0.49435767811532
1.3360000000000	0.83056902616201	-0.50204815673354
1.3600000000000	0.82494825033122	-0.50966905192894
1.3840000000000	0.81924613158930	-0.51721936567179
1.4080000000000	0.81346363289953	-0.52469811350956
1.4320000000000	0.80760172982602	-0.53210432472130
1.4560000000000	0.80166141034177	-0.53943704246980
1.4800000000000	0.79564367463553	-0.54669532395168
1.5040000000000	0.78954953491743	-0.55387824054512
1.5280000000000	0.78338001522332	-0.56098487795555
1.5520000000000	0.77713615121795	-0.56801433635917
1.5760000000000	0.77081898999675	-0.57496573054425
1.6000000000000	0.76442958988653	-0.58183819005043
1.6240000000000	0.75796902024476	-0.58863085930572
1.6480000000000	0.75143836125766	-0.59534289776154
1.6720000000000	0.74483870373703	-0.60197348002550
1.6960000000000	0.73817114891572	-0.60852179599219
1.7200000000000	0.73143680824189	-0.61498705097169
1.7440000000000	0.72463680317192	-0.62136846581613
1.7680000000000	0.71777226496201	-0.62766527704399
1.7920000000000	0.71084433445848	-0.63387673696236
1.8160000000000	0.70385416188674	-0.64000211378697
1.8400000000000	0.69680290663892	-0.64604069176017
1.8640000000000	0.68969173706013	-0.65199177126666
1.8880000000000	0.68252183023337	-0.65785466894713
1.9120000000000	0.67529437176314	-0.66362871780967
1.9360000000000	0.66801055555755	-0.66931326733898
1.9600000000000	0.66067158360915	-0.67490768360336
1.9840000000000	0.65327866577432	-0.68041134935950
2.0080000000000	0.64583301955127	-0.68582366415497
2.0320000000000	0.63833586985661	-0.69114404442843
2.0560000000000	0.63078844880056	-0.69637192360757
2.0800000000000	0.62319199546064	-0.70150675220468
2.1040000000000	0.61554775565405	-0.70654799790989
2.1280000000000	0.60785698170854	-0.71149514568200
2.1520000000000	0.60012093223184	-0.71634769783691
2.1760000000000	0.59234087187972	-0.72110517413358
2.2000000000000	0.58451807112252	-0.72576711185755
2.2240000000000	0.57665380601031	-0.73033306590186
2.2480000000000	0.56874935793658	-0.73480260884550
2.2720000000000	0.56080601340050	-0.73917533102925
2.2960000000000	0.55282506376774	-0.74345084062881
2.3200000000000	0.54480780502984	-0.74762876372538
2.3440000000000	0.53675553756222	-0.75170874437343
2.3680000000000	0.52866956588070	-0.75569044466578
2.3920000000000	0.52055119839668	-0.75957354479584
2.4160000000000	0.51240174717084	-0.76335774311704
2.4400000000000	0.50422252766556	-0.76704275619931
2.4640000000000	0.49601485849587	-0.77062831888276
2.4880000000000	0.48778006117915	-0.77411418432819
2.5120000000000	0.47951945988338	-0.77750012406475
2.5360000000000	0.47123438117418	-0.78078592803444
2.5600000000000	0.46292615376049	-0.78397140463344
2.5840000000000	0.45459610823902	-0.78705638075039
2.6080000000000	0.44624557683739	-0.79004070180135
2.6320000000000	0.43787589315615	-0.79292423176149
2.6560000000000	0.42948839190954	-0.79570685319352
2.6800000000000	0.42108440866510	-0.79838846727268
2.7040000000000	0.41266527958217	-0.80096899380834
2.7280000000000	0.40423234114934	-0.80344837126211
2.7520000000000	0.39578692992076	-0.80582655676242
2.7760000000000	0.38733038225152	-0.80810352611557
2.8000000000000	0.37886403403204	-0.81027927381305
2.8240000000000	0.37038922042152	-0.81235381303532
2.8480000000000	0.36190727558051	-0.81432717565173
2.8720000000000	0.35341953240270	-0.81619941221675
2.8960000000000	0.34492732224586	-0.81797059196235
2.9200000000000	0.33643197466210	-0.81964080278653
2.9440000000000	0.32793481712744	-0.82121015123785
2.9680000000000	0.31943717477080	-0.82267876249609
2.9920000000000	0.31094037010236	-0.82404678034886
3.0160000000000	0.30244572274152	-0.82531436716415
3.0400000000000	0.29395454914436	-0.82648170385874
3.0640000000000	0.28546816233072	-0.82754898986257
3.0880000000000	0.27698787161109	-0.82851644307882
3.1120000000000	0.26851498231312	-0.82938429983982
3.1360000000000	0.26005079550809	-0.83015281485867
3.1600000000000	0.25159660773724	-0.83082226117660
3.1840000000000	0.24315371073809	-0.83139293010593
3.2080000000000	0.23472339117084	-0.83186513116871
3.2320000000000	0.22630693034491	-0.83223919203096
3.2560000000000	0.21790560394571	-0.83251545843240
3.2800000000000	0.20952068176170	-0.83269429411183
3.3040000000000	0.20115342741184	-0.83277608072792
3.3280000000000	0.19280509807356	-0.83276121777554
3.3520000000000	0.18447694421123	-0.83265012249752
3.3760000000000	0.17617020930532	-0.83244322979187
3.4000000000000	0.16788612958228	-0.83214099211440
3.4240000000000	0.15962593374527	-0.83174387937678
3.4480000000000	0.15139084270583	-0.83125237883993
3.4720000000000	0.14318206931648	-0.83066699500284
3.4960000000000	0.13500081810456	-0.82998824948671
3.5200000000000	0.12684828500720	-0.82921668091452
3.5440000000000	0.11872565710757	-0.82835284478585
3.5680000000000	0.11063411237263	-0.82739731334712
3.5920000000000	0.10257481939230	-0.82635067545722
3.6160000000000	0.094548937120237	-0.82521353644835
3.6400000000000	0.086557614616375	-0.82398651798239
3.6640000000000	0.078601990791196	-0.82267025790250
3.6880000000000	0.070683194151949	-0.82126541008020
3.7120000000000	0.062802342550857	-0.81977264425775
3.7360000000000	0.054960542935438	-0.81819264588599
3.7600000000000	0.047158891101035	-0.81652611595762
3.7840000000000	0.039398471445655	-0.81477377083587
3.8080000000000	0.031680356727234	-0.81293634207869
3.8320000000000	0.024005607823407	-0.81101457625842
3.8560000000000	0.016375273493916	-0.80900923477698
3.8800000000000	0.0087903901457171	-0.80692109367666
3.9040000000000	0.0012519816009418	-0.80475094344645
3.9280000000000	-0.0062389411322336	-0.80249958882405
3.9520000000000	-0.013681380085682	-0.80016784859357
3.9760000000000	-0.021074350554294	-0.79775655537890
4.0000000000000	-0.028416881315713	-0.79526655543288
4.0240000000000	-0.035708014846736	-0.79269870842234
4.0480000000000	-0.042946807536297	-0.79005388720891
4.0720000000000	-0.050132329894920	-0.78733297762585
4.0960000000000	-0.057263666760543	-0.78453687825083
4.1200000000000	-0.064339917500633	-0.78166650017475
4.1440000000000	-0.071360196210484	-0.77872276676673
4.1680000000000	-0.078323631907607	-0.77570661343521
4.1920000000000	-0.085229368722130	-0.77261898738534
4.2160000000000	-0.092076566083102	-0.76946084737270
4.2400000000000	-0.098864398900623	-0.76623316345339
4.2640000000000	-0.10559205774371	-0.76293691673065
4.2880000000000	-0.11225874901382	-0.75957309909795
4.3120000000000	-0.11886369511393	-0.75614271297880
4.3360000000000	-0.12540613461311	-0.75264677106326
4.3600000000000	-0.13188532240649	-0.74908629604121
4.3840000000000	-0.13830052987056	-0.74546232033263
4.4080000000000	-0.14465104501376	-0.74177588581475
4.4320000000000	-0.15093617262216	-0.73802804354637
4.4560000000000	-0.15715523440033	-0.73421985348933
4.4800000000000	-0.16330756910725	-0.73035238422728
4.5040000000000	-0.16939253268707	-0.72642671268181
4.5280000000000	-0.17540949839496	-0.72244392382608
4.5520000000000	-0.18135785691767	-0.71840511039601
4.5760000000000	-0.18723701648892	-0.71431137259922
4.6000000000000	-0.19304640299951	-0.71016381782174
4.6240000000000	-0.19878546010217	-0.70596356033259
4.6480000000000	-0.20445364931089	-0.70171172098644
4.6720000000000	-0.21005045009502	-0.69740942692442
4.6960000000000	-0.21557535996771	-0.69305781127307
4.7200000000000	-0.22102789456900	-0.68865801284181
4.7440000000000	-0.22640758774323	-0.68421117581872
4.7680000000000	-0.23171399161095	-0.67971844946506
4.7920000000000	-0.23694667663519	-0.67518098780843
4.8160000000000	-0.24210523168203	-0.67059994933475
4.8400000000000	-0.24718926407555	-0.66597649667926
4.8640000000000	-0.25219839964704	-0.66131179631654
4.8880000000000	-0.25713228277851	-0.65660701824973
4.9120000000000	-0.26199057644040	-0.65186333569909
4.9360000000000	-0.26677296222362	-0.64708192479001
4.9600000000000	-0.27147914036572	-0.64226396424055
4.9840000000000	-0.27610882977134	-0.63741063504865
5.0080000000000	-0.28066176802684	-0.63252312017927
5.0320000000000	-0.28513771140919	-0.62760260425128
5.0560000000000	-0.28953643488898	-0.62265027322459
5.0800000000000	-0.29385773212769	-0.61766731408732
5.1040000000000	-0.29810141546925	-0.61265491454338
5.1280000000000	-0.30226731592567	-0.60761426270041
5.1520000000000	-0.30635528315703	-0.60254654675830
5.1760000000000	-0.31036518544572	-0.59745295469839
5.2000000000000	-0.31429690966489	-0.59233467397345
5.2240000000000	-0.31815036124123	-0.58719289119858
5.2480000000000	-0.32192546411212	-0.58202879184316
5.2720000000000	-0.32562216067702	-0.57684355992397
5.2960000000000	-0.32924041174334	-0.57163837769954
5.3200000000000	-0.33278019646670	-0.56641442536592
5.3440000000000	-0.33624151228557	-0.56117288075401
5.3680000000000	-0.33962437485052	-0.55591491902843
5.3920000000000	-0.34292881794786	-0.55064171238821
5.4160000000000	-0.34615489341802	-0.54535442976927
5.4400000000000	-0.34930267106837	-0.54005423654895
5.4640000000000	-0.35237223858090	-0.53474229425253
5.4880000000000	-0.35536370141445	-0.52941976026201
5.5120000000000	-0.35827718270188	-0.52408778752714
5.5360000000000	-0.36111282314199	-0.51874752427889
5.5600000000000	-0.36387078088631	-0.51340011374538
5.5840000000000	-0.36655123142100	-0.50804669387046
5.6080000000000	-0.36915436744360	-0.50268839703500
5.6320000000000	-0.37168039873501	-0.49732634978095
5.6560000000000	-0.37412955202658	-0.49196167253834
5.6800000000000	-0.37650207086245	-0.48659547935527
5.7040000000000	-0.37879821545718	-0.48122887763099
5.7280000000000	-0.38101826254884	-0.47586296785219
5.7520000000000	-0.38316250524747	-0.47049884333250
5.7760000000000	-0.38523125287916	-0.46513758995543
5.8000000000000	-0.38722483082575	-0.45978028592069
5.8240000000000	-0.38914358036017	-0.45442800149406
5.8480000000000	-0.39098785847773	-0.44908179876089
5.8720000000000	-0.39275803772310	-0.44374273138321
5.8960000000000	-0.39445450601344	-0.43841184436068
5.9200000000000	-0.39607766645749	-0.43309017379532
5.9440000000000	-0.39762793717080	-0.42777874666016
5.9680000000000	-0.39910575108733	-0.42247858057185
5.9920000000000	-0.40051155576724	-0.41719068356727
6.0160000000000	-0.40184581320120	-0.41191605388432
6.0400000000000	-0.40310899961122	-0.40665567974677
6.0640000000000	-0.40430160524809	-0.40141053915340
6.0880000000000	-0.40542413418558	-0.39618159967133
6.1120000000000	-0.40647710411140	-0.39096981823374
6.1360000000000	-0.40746104611517	-0.38577614094194
6.1600000000000	-0.40837650447332	-0.38060150287183
6.1840000000000	-0.40922403643122	-0.37544682788484
6.2080000000000	-0.41000421198243	-0.37031302844339
6.2320000000000	-0.41071761364535	-0.36520100543088
6.2560000000000	-0.41136483623731	-0.36011164797622
6.2800000000000	-0.41194648664610	-0.35504583328307
6.3040000000000	-0.41246318359923	-0.35000442646364
6.3280000000000	-0.41291555743094	-0.34498828037718
6.3520000000000	-0.41330424984693	-0.33999823547325
6.3760000000000	-0.41362991368717	-0.33503511963956
6.4000000000000	-0.41389321268672	-0.33009974805476
6.4240000000000	-0.41409482123464	-0.32519292304582
6.4480000000000	-0.41423542413123	-0.32031543395029
6.4720000000000	-0.41431571634361	-0.31546805698335
6.4960000000000	-0.41433640275973	-0.31065155510965
6.5200000000000	-0.41429819794102	-0.30586667791996
6.5440000000000	-0.41420182587358	-0.30111416151269
6.5680000000000	-0.41404801971824	-0.29639472838022
6.5920000000000	-0.41383752155950	-0.29170908730005
6.6160000000000	-0.41357108215331	-0.28705793323081
6.6400000000000	-0.41324946067409	-0.28244194721310
6.6640000000000	-0.41287342446077	-0.27786179627513
6.6880000000000	-0.41244374876216	-0.27331813334323
6.7120000000000	-0.41196121648173	-0.26881159715713
6.7360000000000	-0.41142661792173	-0.26434281219008
6.7600000000000	-0.41084075052697	-0.25991238857373
6.7840000000000	-0.41020441862824	-0.25552092202782
6.8080000000000	-0.40951843318539	-0.25116899379457
6.8320000000000	-0.40878361153036	-0.24685717057791
6.8560000000000	-0.40800077711006	-0.24258600448731
6.8800000000000	-0.40717075922934	-0.23835603298642
6.9040000000000	-0.40629439279396	-0.23416777884628
6.9280000000000	-0.40537251805392	-0.23002175010328
6.9520000000000	-0.40440598034693	-0.22591844002165
6.9760000000000	-0.40339562984233	-0.22185832706060
7.0000000000000	-0.40234232128547	-0.21784187484599
7.0240000000000	-0.40124691374259	-0.21386953214655
7.0480000000000	-0.40011027034638	-0.20994173285454
7.0720000000000	-0.39893325804220	-0.20605889597095
7.0960000000000	-0.39771674733514	-0.20222142559504
7.1200000000000	-0.39646161203786	-0.19842971091829
7.1440000000000	-0.39516872901947	-0.19468412622274
7.1680000000000	-0.39383897795540	-0.19098503088352
7.1920000000000	-0.39247324107830	-0.18733276937576
7.2160000000000	-0.39107240293017	-0.18372767128560
7.2400000000000	-0.38963735011574	-0.18017005132548
7.2640000000000	-0.38816897105713	-0.17666020935343
7.2880000000000	-0.38666815574984	-0.17319843039657
7.3120000000000	-0.38513579552029	-0.16978498467850
7.3360000000000	-0.38357278278477	-0.16642012765079
7.3600000000000	-0.38198001081002	-0.16310410002830
7.3840000000000	-0.38035837347545	-0.15983712782844
7.4080000000000	-0.37870876503699	-0.15661942241424
7.4320000000000	-0.37703207989276	-0.15345118054115
7.4560000000000	-0.37532921235058	-0.15033258440764
7.4800000000000	-0.37360105639724	-0.14726380170939
7.5040000000000	-0.37184850546982	-0.14424498569711
7.5280000000000	-0.37007245222890	-0.14127627523794
7.5520000000000	-0.36827378833384	-0.13835779488032
7.5760000000000	-0.36645340422017	-0.13548965492230
7.6000000000000	-0.36461218887902	-0.13267195148325
7.6240000000000	-0.36275102963884	-0.12990476657891
7.6480000000000	-0.36087081194925	-0.12718816819962
7.6720000000000	-0.35897241916725	-0.12452221039189
7.6960000000000	-0.35705673234562	-0.12190693334304
7.7200000000000	-0.35512463002379	-0.11934236346890
7.7440000000000	-0.35317698802106	-0.11682851350465
7.7680000000000	-0.35121467923223	-0.11436538259850
7.7920000000000	-0.34923857342571	-0.11195295640842
7.8160000000000	-0.34724953704416	-0.10959120720157
7.8400000000000	-0.34524843300764	-0.10728009395665
7.8640000000000	-0.34323612051934	-0.10501956246891
7.8880000000000	-0.34121345487392	-0.10280954545783
7.9120000000000	-0.33918128726845	-0.10064996267746
7.9360000000000	-0.33714046461609	-0.098540721029204
7.9600000000000	-0.33509182936236	-0.096481714677235
7.9840000000000	-0.33303621930416	-0.094472825166188
8.0080000000000	-0.33097446741161	-0.092513921541318
8.0320000000000	-0.32890740165251	-0.090604860470912
8.0560000000000	-0.32683584481970	-0.088745486370962
8.0800000000000	-0.32476061436116	-0.086935631532020
8.1040000000000	-0.32268252221299	-0.085175116248160
8.1280000000000	-0.32060237463517	-0.083463748948018
8.1520000000000	-0.31852097205023	-0.081801326327827
8.1760000000000	-0.31643910888477	-0.080187633486383
8.2000000000000	-0.31435757341391	-0.078622444061909
8.2240000000000	-0.31227714760856	-0.077105520370729
8.2480000000000	-0.31019860698573	-0.075636613547707
8.2720000000000	-0.30812272046166	-0.074215463688394
8.2960000000000	-0.30605025020791	-0.072841799992810
8.3200000000000	-0.30398195151049	-0.071515340910822
8.3440000000000	-0.30191857263178	-0.070235794289047
8.3680000000000	-0.29986085467558	-0.069002857519226
8.3920000000000	-0.29780953145503	-0.067816217688009
8.4160000000000	-0.29576532936350	-0.066675551728099
8.4400000000000	-0.29372896724852	-0.065580526570695
8.4640000000000	-0.29170115628863	-0.064530799299185
8.4880000000000	-0.28968259987324	-0.063526017304010
8.5120000000000	-0.28767399348550	-0.062565818438681
8.5360000000000	-0.28567602458804	-0.061649831176860
8.5600000000000	-0.28368937251188	-0.060777674770475
8.5840000000000	-0.28171470834811	-0.059948959408789
8.6080000000000	-0.27975269484272	-0.059163286378399
8.6320000000000	-0.27780398629432	-0.058420248224098
8.6560000000000	-0.27586922845481	-0.057719428910531
8.6800000000000	-0.27394905843309	-0.057060403984631
8.7040000000000	-0.27204410460168	-0.056442740738743
8.7280000000000	-0.27015498650629	-0.055865998374417
8.7520000000000	-0.26828231477833	-0.055329728166795
8.7760000000000	-0.26642669105041	-0.054833473629562
8.8000000000000	-0.26458870787469	-0.054376770680397
8.8240000000000	-0.26276894864423	-0.053959147806882
8.8480000000000	-0.26096798751714	-0.053580126232819
8.8720000000000	-0.25918638934375	-0.053239220084905
8.8960000000000	-0.25742470959658	-0.052935936559722
8.9200000000000	-0.25568349430322	-0.052669776090997
8.9440000000000	-0.25396327998202	-0.052440232517068
8.9680000000000	-0.25226459358069	-0.052246793248540
8.9920000000000	-0.25058795241773	-0.052088939436057
9.0160000000000	-0.24893386412660	-0.051966146138168
9.0400000000000	-0.24730282660275	-0.051877882489225
9.0640000000000	-0.24569532795346	-0.051823611867282
9.0880000000000	-0.24411184645039	-0.051802792061948
9.1120000000000	-0.24255285048490	-0.051814875442148
9.1360000000000	-0.24101879852615	-0.051859309123759
9.1600000000000	-0.23951013908180	-0.051935535137067
9.1840000000000	-0.23802731066159	-0.052042990594018
9.2080000000000	-0.23657074174340	-0.052181107855220
9.2320000000000	-0.23514085074210	-0.052349314696639
9.2560000000000	-0.23373804598104	-0.052547034475984
9.2800000000000	-0.23236272566602	-0.052773686298705
9.3040000000000	-0.23101527786206	-0.053028685183599
9.3280000000000	-0.22969608047259	-0.053311442227964
9.3520000000000	-0.22840550122124	-0.053621364772274
9.3760000000000	-0.22714389763621	-0.053957856564344
9.4000000000000	-0.22591161703708	-0.054320317922934
9.4240000000000	-0.22470899652415	-0.054708145900774
9.4480000000000	-0.22353636297021	-0.055120734446969
9.4720000000000	-0.22239403301483	-0.055557474568739
9.4960000000000	-0.22128231306091	-0.056017754492491
9.5200000000000	-0.22020149927385	-0.056500959824154
9.5440000000000	-0.21915187758283	-0.057006473708768
9.5680000000000	-0.21813372368465	-0.057533676989298
9.5920000000000	-0.21714730304977	-0.058081948364620
9.6160000000000	-0.21619287093065	-0.058650664546676
9.6400000000000	-0.21527067237244	-0.059239200416749
9.6640000000000	-0.21438094222577	-0.059846929180838
9.6880000000000	-0.21352390516189	-0.060473222524102
9.7120000000000	-0.21269977568991	-0.061117450764344
9.7360000000000	-0.21190875817625	-0.061778983004512
9.7600000000000	-0.21115104686620	-0.062457187284183
9.7840000000000	-0.21042682590758	-0.063151430730012
9.8080000000000	-0.20973626937650	-0.063861079705118
9.8320000000000	-0.20907954130516	-0.064585499957376
9.8560000000000	-0.20845679571168	-0.065324056766596
9.8800000000000	-0.20786817663192	-0.066076115090569
9.9040000000000	-0.20731381815325	-0.066841039709948
9.9280000000000	-0.20679384445030	-0.067618195371945
9.9520000000000	-0.20630836982261	-0.068406946932825
9.9760000000000	-0.20585749873410	-0.069206659499171
