#Parameters = {d=9.5051559838931; d_passa_faixa=11.118252561128; e=3.984381e-11; l=5; p=10.89725559975; p_passa_faixa=11.773094507628; phi=0; r=281.16907657059; theta=0; u=1.2566e-06; w=1.9837076625897; w_passa_faixa=0.13385049465315; z_fss=0.2}
#"Frequency / GHz"	"SZmin(2),Zmax(2) (2) [Real/Imaginary Part] [Re]"	"SZmin(2),Zmax(2) (2) [Real/Imaginary Part] [Im]"
#---------------------------------------------------------------------------------------------------------------------
1.0000000000000	0.90018464453598	-0.38856613459539
1.0240000000000	0.89578676129200	-0.39706908772688
1.0480000000000	0.89129589089963	-0.40551603417040
1.0720000000000	0.88671280377774	-0.41390584602647
1.0960000000000	0.88203828436663	-0.42223740613805
1.1200000000000	0.87727313099541	-0.43050960824674
1.1440000000000	0.87241815574838	-0.43872135714837
1.1680000000000	0.86747418433044	-0.44687156884804
1.1920000000000	0.86244205593140	-0.45495917071440
1.2160000000000	0.85732262308923	-0.46298310163347
1.2400000000000	0.85211675155219	-0.47094231216176
1.2640000000000	0.84682532013964	-0.47883576467896
1.2880000000000	0.84144922060170	-0.48666243353988
1.3120000000000	0.83598935747758	-0.49442130522599
1.3360000000000	0.83044664795251	-0.50211137849631
1.3600000000000	0.82482202171329	-0.50973166453773
1.3840000000000	0.81911642080234	-0.51728118711483
1.4080000000000	0.81333079947027	-0.52475898271902
1.4320000000000	0.80746612402683	-0.53216410071717
1.4560000000000	0.80152337269025	-0.53949560349958
1.4800000000000	0.79550353543491	-0.54675256662736
1.5040000000000	0.78940761383727	-0.55393407897915
1.5280000000000	0.78323662091997	-0.56103924289715
1.5520000000000	0.77699158099420	-0.56806717433253
1.5760000000000	0.77067352950004	-0.57501700298996
1.6000000000000	0.76428351284502	-0.58188787247161
1.6240000000000	0.75782258824057	-0.58867894042012
1.6480000000000	0.75129182353651	-0.59538937866093
1.6720000000000	0.74469229705344	-0.60201837334360
1.6960000000000	0.73802509741302	-0.60856512508232
1.7200000000000	0.73129132336611	-0.61502884909543
1.7440000000000	0.72449208361864	-0.62140877534387
1.7680000000000	0.71762849665531	-0.62770414866868
1.7920000000000	0.71070169056097	-0.63391422892733
1.8160000000000	0.70371280283971	-0.64003829112887
1.8400000000000	0.69666298023156	-0.64607562556789
1.8640000000000	0.68955337852684	-0.65202553795723
1.8880000000000	0.68238516237812	-0.65788734955925
1.9120000000000	0.67515950510965	-0.66366039731582
1.9360000000000	0.66787758852445	-0.66934403397670
1.9600000000000	0.66054060270878	-0.67493762822653
1.9840000000000	0.65314974583420	-0.68044056481008
2.0080000000000	0.64570622395707	-0.68585224465592
2.0320000000000	0.63821125081548	-0.69117208499827
2.0560000000000	0.63066604762364	-0.69639951949707
2.0800000000000	0.62307184286371	-0.70153399835617
2.1040000000000	0.61542987207502	-0.70657498843945
2.1280000000000	0.60774137764077	-0.71152197338501
2.1520000000000	0.60000760857206	-0.71637445371715
2.1760000000000	0.59222982028936	-0.72113194695615
2.2000000000000	0.58440927440146	-0.72579398772580
2.2240000000000	0.57654723848176	-0.73036012785850
2.2480000000000	0.56864498584199	-0.73482993649796
2.2720000000000	0.56070379530344	-0.73920300019933
2.2960000000000	0.55272495096558	-0.74347892302672
2.3200000000000	0.54470974197217	-0.74765732664802
2.3440000000000	0.53665946227487	-0.75173785042692
2.3680000000000	0.52857541039435	-0.75572015151211
2.3920000000000	0.52045888917896	-0.75960390492346
2.4160000000000	0.51231120556095	-0.76338880363518
2.4400000000000	0.50413367031030	-0.76707455865589
2.4640000000000	0.49592759778618	-0.77066089910549
2.4880000000000	0.48769430568612	-0.77414757228866
2.5120000000000	0.47943511479281	-0.77753434376509
2.5360000000000	0.47115134871878	-0.78082099741623
2.5600000000000	0.46284433364878	-0.78400733550843
2.5840000000000	0.45451539808006	-0.78709317875260
2.6080000000000	0.44616587256059	-0.79007836636007
2.6320000000000	0.43779708942519	-0.79296275609470
2.6560000000000	0.42941038252969	-0.79574622432118
2.6800000000000	0.42100708698325	-0.79842866604937
2.7040000000000	0.41258853887871	-0.80100999497465
2.7280000000000	0.40415607502125	-0.80349014351416
2.7520000000000	0.39571103265531	-0.80586906283895
2.7760000000000	0.38725474918985	-0.80814672290189
2.8000000000000	0.37878856192204	-0.81032311246126
2.8240000000000	0.37031380775955	-0.81239823910004
2.8480000000000	0.36183182294125	-0.81437212924072
2.8720000000000	0.35334394275678	-0.81624482815571
2.8960000000000	0.34485150126478	-0.81801639997309
2.9200000000000	0.33635583100995	-0.81968692767786
2.9440000000000	0.32785826273907	-0.82125651310848
2.9680000000000	0.31936012511609	-0.82272527694871
2.9920000000000	0.31086274443629	-0.82409335871464
3.0160000000000	0.30236744433966	-0.82536091673698
3.0400000000000	0.29387554552359	-0.82652812813839
3.0640000000000	0.28538836545504	-0.82759518880598
3.0880000000000	0.27690721808213	-0.82856231335880
3.1120000000000	0.26843341354546	-0.82942973511033
3.1360000000000	0.25996825788900	-0.83019770602603
3.1600000000000	0.25151305277100	-0.83086649667569
3.1840000000000	0.24306909517469	-0.83143639618078
3.2080000000000	0.23463767711912	-0.83190771215664
3.2320000000000	0.22622008537011	-0.83228077064950
3.2560000000000	0.21781760115147	-0.83255591606837
3.2800000000000	0.20943149985667	-0.83273351111170
3.3040000000000	0.20106305076093	-0.83281393668886
3.3280000000000	0.19271351673396	-0.83279759183632
3.3520000000000	0.18438415395346	-0.83268489362873
3.3760000000000	0.17607621161939	-0.83247627708461
3.4000000000000	0.16779093166928	-0.83217219506690
3.4240000000000	0.15952954849461	-0.83177311817823
3.4480000000000	0.15129328865832	-0.83127953465092
3.4720000000000	0.14308337061373	-0.83069195023177
3.4960000000000	0.13490100442484	-0.83001088806164
3.5200000000000	0.12674739148821	-0.82923688854976
3.5440000000000	0.11862372425650	-0.82837050924286
3.5680000000000	0.11053118596383	-0.82741232468916
3.5920000000000	0.10247095035299	-0.82636292629712
3.6160000000000	0.094444181404745	-0.82522292218910
3.6400000000000	0.086452033069268	-0.82399293704995
3.6640000000000	0.078495648999815	-0.82267361197041
3.6880000000000	0.070576162288797	-0.82126560428561
3.7120000000000	0.062694695206352	-0.81976958740844
3.7360000000000	0.054852358941525	-0.81818625065806
3.7600000000000	0.047050253346166	-0.81651629908340
3.7840000000000	0.039289466681676	-0.81476045328189
3.8080000000000	0.031571075368706	-0.81291944921326
3.8320000000000	0.023896143739901	-0.81099403800869
3.8560000000000	0.016265723795850	-0.80898498577516
3.8800000000000	0.0086808549642632	-0.80689307339516
3.9040000000000	0.0011425638625880	-0.80471909632188
3.9280000000000	-0.0063481359359081	-0.80246386436983
3.9520000000000	-0.013790244132458	-0.80012820150095
3.9760000000000	-0.021182773929421	-0.79771294560648
4.0000000000000	-0.028524752253102	-0.79521894828437
4.0240000000000	-0.035815219972672	-0.79264707461255
4.0480000000000	-0.043053232115108	-0.78999820291804
4.0720000000000	-0.050237858076042	-0.78727322454190
4.0960000000000	-0.057368181826432	-0.78447304360033
4.1200000000000	-0.064443302114949	-0.78159857674176
4.1440000000000	-0.071462332666028	-0.77865075290016
4.1680000000000	-0.078424402373467	-0.77563051304461
4.1920000000000	-0.085328655489499	-0.77253880992528
4.2160000000000	-0.092174251809255	-0.76937660781585
4.2400000000000	-0.098960366850543	-0.76614488225247
4.2640000000000	-0.10568619202887	-0.76284461976942
4.2880000000000	-0.11235093482765	-0.75947681763149
4.3120000000000	-0.11895381896341	-0.75604248356328
4.3360000000000	-0.12549408454619	-0.75254263547538
4.3600000000000	-0.13197098823475	-0.74897830118777
4.3840000000000	-0.13838380338675	-0.74535051815019
4.4080000000000	-0.14473182020374	-0.74166033316005
4.4320000000000	-0.15101434587098	-0.73790880207753
4.4560000000000	-0.15723070469191	-0.73409698953830
4.4800000000000	-0.16338023821739	-0.73022596866385
4.5040000000000	-0.16946230536946	-0.72629682076956
4.5280000000000	-0.17547628255977	-0.72231063507063
4.5520000000000	-0.18142156380252	-0.71826850838594
4.5760000000000	-0.18729756082188	-0.71417154484006
4.6000000000000	-0.19310370315393	-0.71002085556343
4.6240000000000	-0.19883943824292	-0.70581755839086
4.6480000000000	-0.20450423153208	-0.70156277755852
4.6720000000000	-0.21009756654864	-0.69725764339943
4.6960000000000	-0.21561894498336	-0.69290329203767
4.7200000000000	-0.22106788676421	-0.68850086508136
4.7440000000000	-0.22644393012453	-0.68405150931467
4.7680000000000	-0.23174663166534	-0.67955637638869
4.7920000000000	-0.23697556641199	-0.67501662251163
4.8160000000000	-0.24213032786509	-0.67043340813824
4.8400000000000	-0.24721052804566	-0.66580789765864
4.8640000000000	-0.25221579753456	-0.66114125908664
4.8880000000000	-0.25714578550617	-0.65643466374781
4.9120000000000	-0.26200015975632	-0.65168928596719
4.9360000000000	-0.26677860672449	-0.64690630275699
4.9600000000000	-0.27148083151027	-0.64208689350425
4.9840000000000	-0.27610655788412	-0.63723223965862
5.0080000000000	-0.28065552829238	-0.63234352442038
5.0320000000000	-0.28512750385664	-0.62742193242887
5.0560000000000	-0.28952226436738	-0.62246864945131
5.0800000000000	-0.29383960827199	-0.61748486207230
5.1040000000000	-0.29807935265718	-0.61247175738398
5.1280000000000	-0.30224133322575	-0.60743052267700
5.1520000000000	-0.30632540426778	-0.60236234513242
5.1760000000000	-0.31033143862632	-0.59726841151476
5.2000000000000	-0.31425932765754	-0.59214990786602
5.2240000000000	-0.31810898118543	-0.58700801920112
5.2480000000000	-0.32188032745102	-0.58184392920465
5.2720000000000	-0.32557331305629	-0.57665881992911
5.2960000000000	-0.32918790290262	-0.57145387149471
5.3200000000000	-0.33272408012405	-0.56623026179093
5.3440000000000	-0.33618184601521	-0.56098916617977
5.3680000000000	-0.33956121995409	-0.55573175720096
5.3920000000000	-0.34286223931959	-0.55045920427920
5.4160000000000	-0.34608495940405	-0.54517267343335
5.4400000000000	-0.34922945332070	-0.53987332698797
5.4640000000000	-0.35229581190610	-0.53456232328704
5.4880000000000	-0.35528414361772	-0.52924081641007
5.5120000000000	-0.35819457442655	-0.52390995589067
5.5360000000000	-0.36102724770506	-0.51857088643775
5.5600000000000	-0.36378232411026	-0.51322474765922
5.5840000000000	-0.36645998146222	-0.50787267378856
5.6080000000000	-0.36906041461789	-0.50251579341412
5.6320000000000	-0.37158383534050	-0.49715522921130
5.6560000000000	-0.37403047216437	-0.49179209767776
5.6800000000000	-0.37640057025545	-0.48642750887169
5.7040000000000	-0.37869439126745	-0.48106256615309
5.7280000000000	-0.38091221319382	-0.47569836592839
5.7520000000000	-0.38305433021549	-0.47033599739830
5.7760000000000	-0.38512105254457	-0.46497654230893
5.8000000000000	-0.38711270626406	-0.45962107470642
5.8240000000000	-0.38902963316357	-0.45427066069501
5.8480000000000	-0.39087219057125	-0.44892635819864
5.8720000000000	-0.39264075118195	-0.44358921672616
5.8960000000000	-0.39433570288168	-0.43826027714020
5.9200000000000	-0.39595744856848	-0.43294057142980
5.9440000000000	-0.39750640596980	-0.42763112248674
5.9680000000000	-0.39898300745642	-0.42233294388578
5.9920000000000	-0.40038769985302	-0.41704703966873
6.0160000000000	-0.40172094424557	-0.41177440413246
6.0400000000000	-0.40298321578545	-0.40651602162093
6.0640000000000	-0.40417500349054	-0.40127286632119
6.0880000000000	-0.40529681004335	-0.39604590206348
6.1120000000000	-0.40634915158616	-0.39083608212542
6.1360000000000	-0.40733255751341	-0.38564434904038
6.1600000000000	-0.40824757026136	-0.38047163441001
6.1840000000000	-0.40909474509504	-0.37531885872100
6.2080000000000	-0.40987464989279	-0.37018693116607
6.2320000000000	-0.41058786492817	-0.36507674946934
6.2560000000000	-0.41123498264965	-0.35998919971585
6.2800000000000	-0.41181660745792	-0.35492515618563
6.3040000000000	-0.41233335548106	-0.34988548119191
6.3280000000000	-0.41278585434760	-0.34487102492396
6.3520000000000	-0.41317474295757	-0.33988262529413
6.3760000000000	-0.41350067125160	-0.33492110778946
6.4000000000000	-0.41376429997828	-0.32998728532772
6.4240000000000	-0.41396630045965	-0.32508195811783
6.4480000000000	-0.41410735435513	-0.32020591352491
6.4720000000000	-0.41418815342389	-0.31535992593966
6.4960000000000	-0.41420939928568	-0.31054475665239
6.5200000000000	-0.41417180318034	-0.30576115373146
6.5440000000000	-0.41407608572597	-0.30100985190628
6.5680000000000	-0.41392297667593	-0.29629157245482
6.5920000000000	-0.41371321467471	-0.29160702309570
6.6160000000000	-0.41344754701270	-0.28695689788470
6.6400000000000	-0.41312672938013	-0.28234187711594
6.6640000000000	-0.41275152562007	-0.27776262722744
6.6880000000000	-0.41232270748063	-0.27321980071131
6.7120000000000	-0.41184105436658	-0.26871403602846
6.7360000000000	-0.41130735309022	-0.26424595752772
6.7600000000000	-0.41072239762187	-0.25981617536959
6.7840000000000	-0.41008698883981	-0.25542528545440
6.8080000000000	-0.40940193427993	-0.25107386935500
6.8320000000000	-0.40866804788505	-0.24676249425388
6.8560000000000	-0.40788614975411	-0.24249171288480
6.8800000000000	-0.40705706589122	-0.23826206347882
6.9040000000000	-0.40618162795466	-0.23407406971477
6.9280000000000	-0.40526067300592	-0.22992824067412
6.9520000000000	-0.40429504325892	-0.22582507080026
6.9760000000000	-0.40328558582939	-0.22176503986210
7.0000000000000	-0.40223315248451	-0.21774861292207
7.0240000000000	-0.40113859939297	-0.21377624030838
7.0480000000000	-0.40000278687538	-0.20984835759165
7.0720000000000	-0.39882657915526	-0.20596538556573
7.0960000000000	-0.39761084411052	-0.20212773023281
7.1200000000000	-0.39635645302569	-0.19833578279273
7.1440000000000	-0.39506428034480	-0.19458991963647
7.1680000000000	-0.39373520342507	-0.19089050234380
7.1920000000000	-0.39237010229145	-0.18723787768505
7.2160000000000	-0.39096985939212	-0.18363237762698
7.2400000000000	-0.38953535935497	-0.18007431934265
7.2640000000000	-0.38806748874510	-0.17656400522537
7.2880000000000	-0.38656713582356	-0.17310172290661
7.3120000000000	-0.38503519030715	-0.16968774527786
7.3360000000000	-0.38347254312958	-0.16632233051638
7.3600000000000	-0.38188008620389	-0.16300572211484
7.3840000000000	-0.38025871218629	-0.15973814891474
7.4080000000000	-0.37860931424143	-0.15651982514372
7.4320000000000	-0.37693278580914	-0.15335095045651
7.4560000000000	-0.37523002037280	-0.15023170997960
7.4800000000000	-0.37350191122924	-0.14716227435964
7.5040000000000	-0.37174935126041	-0.14414279981538
7.5280000000000	-0.36997323270670	-0.14117342819322
7.5520000000000	-0.36817444694207	-0.13825428702626
7.5760000000000	-0.36635388425104	-0.13538548959684
7.6000000000000	-0.36451243360753	-0.13256713500250
7.6240000000000	-0.36265098245570	-0.12979930822538
7.6480000000000	-0.36077041649267	-0.12708208020484
7.6720000000000	-0.35887161945340	-0.12441550791348
7.6960000000000	-0.35695547289760	-0.12179963443634
7.7200000000000	-0.35502285599873	-0.11923448905327
7.7440000000000	-0.35307464533528	-0.11672008732448
7.7680000000000	-0.35111171468417	-0.11425643117913
7.7920000000000	-0.34913493481647	-0.11184350900700
7.8160000000000	-0.34714517329541	-0.10948129575307
7.8400000000000	-0.34514329427675	-0.10716975301509
7.8640000000000	-0.34313015831152	-0.10490882914397
7.8880000000000	-0.34110662215121	-0.10269845934703
7.9120000000000	-0.33907353855535	-0.10053856579400
7.9360000000000	-0.33703175610171	-0.098429057725676
7.9600000000000	-0.33498211899895	-0.096369831565340
7.9840000000000	-0.33292546690180	-0.094360771032669
8.0080000000000	-0.33086263472898	-0.092401747260247
8.0320000000000	-0.32879445248362	-0.090492618912538
8.0560000000000	-0.32672174507638	-0.088633232307309
8.0800000000000	-0.32464533215129	-0.086823421539400
8.1040000000000	-0.32256602791430	-0.085063008606831
8.1280000000000	-0.32048464096455	-0.083351803539160
8.1520000000000	-0.31840197412845	-0.081689604528039
8.1760000000000	-0.31631882429648	-0.080076198059928
8.2000000000000	-0.31423598226297	-0.078511359050867
8.2240000000000	-0.31215423256853	-0.076994850983316
8.2480000000000	-0.31007435334549	-0.075526426044926
8.2720000000000	-0.30799711616613	-0.074105825269253
8.2960000000000	-0.30592328589389	-0.072732778678312
8.3200000000000	-0.30385362053748	-0.071407005426920
8.3440000000000	-0.30178887110785	-0.070128213948804
8.3680000000000	-0.29972978147825	-0.068896102104354
8.3920000000000	-0.29767708824714	-0.067710357330029
8.4160000000000	-0.29563152060415	-0.066570656789304
8.4400000000000	-0.29359380019903	-0.065476667525134
8.4640000000000	-0.29156464101356	-0.064428046613864
8.4880000000000	-0.28954474923651	-0.063424441320526
8.5120000000000	-0.28753482314163	-0.062465489255463
8.5360000000000	-0.28553555296868	-0.061550818532242
8.5600000000000	-0.28354762080743	-0.060680047926757
8.5840000000000	-0.28157170048481	-0.059852787037526
8.6080000000000	-0.27960845745504	-0.059068636447051
8.6320000000000	-0.27765854869281	-0.058327187884248
8.6560000000000	-0.27572262258958	-0.057628024387862
8.6800000000000	-0.27380131885284	-0.056970720470796
8.7040000000000	-0.27189526840853	-0.056354842285336
8.7280000000000	-0.27000509330646	-0.055779947789175
8.7520000000000	-0.26813140662879	-0.055245586912210
8.7760000000000	-0.26627481240155	-0.054751301724053
8.8000000000000	-0.26443590550928	-0.054296626602172
8.8240000000000	-0.26261527161265	-0.053881088400643
8.8480000000000	-0.26081348706912	-0.053504206619455
8.8720000000000	-0.25903111885667	-0.053165493574271
8.8960000000000	-0.25726872450054	-0.052864454566663
8.9200000000000	-0.25552685200299	-0.052600588054694
8.9440000000000	-0.25380603977606	-0.052373385823848
8.9680000000000	-0.25210681657734	-0.052182333158238
8.9920000000000	-0.25042970144875	-0.052026909012017
9.0160000000000	-0.24877520365823	-0.051906586180989
9.0400000000000	-0.24714382264447	-0.051820831474319
9.0640000000000	-0.24553604796455	-0.051769105886330
9.0880000000000	-0.24395235924452	-0.051750864768310
9.1120000000000	-0.24239322613290	-0.051765558000297
9.1360000000000	-0.24085910825708	-0.051812630162787
9.1600000000000	-0.23935045518265	-0.051891520708310
9.1840000000000	-0.23786770637551	-0.052001664132842
9.2080000000000	-0.23641129116694	-0.052142490146992
9.2320000000000	-0.23498162872141	-0.052313423846918
9.2560000000000	-0.23357912800724	-0.052513885884939
9.2800000000000	-0.23220418777009	-0.052743292639785
9.3040000000000	-0.23085719650913	-0.053001056386435
9.3280000000000	-0.22953853245603	-0.053286585465533
9.3520000000000	-0.22824856355667	-0.053599284452279
9.3760000000000	-0.22698764745549	-0.053938554324823
9.4000000000000	-0.22575613148261	-0.054303792632051
9.4240000000000	-0.22455435264352	-0.054694393660784
9.4480000000000	-0.22338263761144	-0.055109748602301
9.4720000000000	-0.22224130272228	-0.055549245718168
9.4960000000000	-0.22113065397215	-0.056012270505343
9.5200000000000	-0.22005098701746	-0.056498205860491
9.5440000000000	-0.21900258717748	-0.057006432243493
9.5680000000000	-0.21798572943946	-0.057536327840113
9.5920000000000	-0.21700067846614	-0.058087268723767
9.6160000000000	-0.21604768860578	-0.058658629016379
9.6400000000000	-0.21512700390451	-0.059249781048283
9.6640000000000	-0.21423885812109	-0.059860095517123
9.6880000000000	-0.21338347474405	-0.060488941645747
9.7120000000000	-0.21256106701108	-0.061135687339037
9.7360000000000	-0.21177183793072	-0.061799699339646
9.7600000000000	-0.21101598030633	-0.062480343382630
9.7840000000000	-0.21029367676227	-0.063176984348921
9.8080000000000	-0.20960509977220	-0.063888986417630
9.8320000000000	-0.20895041168963	-0.064615713217140
9.8560000000000	-0.20832976478053	-0.065356527974965
9.8800000000000	-0.20774330125805	-0.066110793666352
9.9040000000000	-0.20719115331925	-0.066877873161593
9.9280000000000	-0.20667344318391	-0.067657129372024
9.9520000000000	-0.20619028313530	-0.068447925394694
9.9760000000000	-0.20574177556288	-0.069249624655664
