#Parameters = {d=5.317902894795; d_passa_faixa=9.8825261741929; e=6.5892246517659e-11; l=5; p=5.3716190856516; p_passa_faixa=10.084210381829; phi=0; r=100; theta=0; u=1.1425808117681e-06; w=0.98825261741929; w_passa_faixa=0.495; z_fss=0.3}
#"Frequency / GHz"	"SZmax(2),Zmax(2) (1) [Real/Imaginary Part] [Re]"	"SZmax(2),Zmax(2) (1) [Real/Imaginary Part] [Im]"
#---------------------------------------------------------------------------------------------------------------------
1.0000000000000	-0.94306363224730	0.32124449513924
1.0240000000000	-0.94030479151403	0.32866025025974
1.0480000000000	-0.93748022482139	0.33605804474964
1.0720000000000	-0.93458989601317	0.34343733950356
1.0960000000000	-0.93163377017556	0.35079759271512
1.1200000000000	-0.92861181362897	0.35813825979758
1.1440000000000	-0.92552399392089	0.36545879330216
1.1680000000000	-0.92237027981997	0.37275864283401
1.1920000000000	-0.91915064131132	0.38003725496565
1.2160000000000	-0.91586504959309	0.38729407314805
1.2400000000000	-0.91251347707443	0.39452853761907
1.2640000000000	-0.90909589737487	0.40174008530942
1.2880000000000	-0.90561228532516	0.40892814974594
1.3120000000000	-0.90206261696967	0.41609216095224
1.3360000000000	-0.89844686957045	0.42323154534654
1.3600000000000	-0.89476502161292	0.43034572563683
1.3840000000000	-0.89101705281340	0.43743412071315
1.4080000000000	-0.88720294412849	0.44449614553695
1.4320000000000	-0.88332267776638	0.45153121102754
1.4560000000000	-0.87937623720016	0.45853872394559
1.4800000000000	-0.87536360718333	0.46551808677341
1.5040000000000	-0.87128477376745	0.47246869759235
1.5280000000000	-0.86713972432216	0.47938994995677
1.5520000000000	-0.86292844755758	0.48628123276500
1.5760000000000	-0.85865093354928	0.49314193012681
1.6000000000000	-0.85430717376585	0.49997142122771
1.6240000000000	-0.84989716109922	0.50676908018961
1.6480000000000	-0.84542088989795	0.51353427592822
1.6720000000000	-0.84087835600337	0.52026637200671
1.6960000000000	-0.83626955678901	0.52696472648587
1.7200000000000	-0.83159449120317	0.53362869177056
1.7440000000000	-0.82685315981503	0.54025761445238
1.7680000000000	-0.82204556486423	0.54685083514855
1.7920000000000	-0.81717171031422	0.55340768833694
1.8160000000000	-0.81223160190950	0.55992750218711
1.8400000000000	-0.80722524723684	0.56640959838730
1.8640000000000	-0.80215265579085	0.57285329196745
1.8880000000000	-0.79701383904386	0.57925789111795
1.9120000000000	-0.79180881052043	0.58562269700424
1.9360000000000	-0.78653758587670	0.59194700357710
1.9600000000000	-0.78120018298468	0.59823009737858
1.9840000000000	-0.77579662202183	0.60447125734354
2.0080000000000	-0.77032692556606	0.61066975459667
2.0320000000000	-0.76479111869640	0.61682485224498
2.0560000000000	-0.75918922909965	0.62293580516567
2.0800000000000	-0.75352128718314	0.62900185978933
2.1040000000000	-0.74778732619400	0.63502225387842
2.1280000000000	-0.74198738234512	0.64099621630089
2.1520000000000	-0.73612149494815	0.64692296679906
2.1760000000000	-0.73018970655378	0.65280171575348
2.2000000000000	-0.72419206309965	0.65863166394193
2.2240000000000	-0.71812861406625	0.66441200229333
2.2480000000000	-0.71199941264102	0.67014191163673
2.2720000000000	-0.70580451589119	0.67582056244503
2.2960000000000	-0.69954398494552	0.68144711457377
2.3200000000000	-0.69321788518552	0.68702071699463
2.3440000000000	-0.68682628644641	0.69254050752382
2.3680000000000	-0.68036926322823	0.69800561254525
2.3920000000000	-0.67384689491767	0.70341514672848
2.4160000000000	-0.66725926602092	0.70876821274149
2.4400000000000	-0.66060646640801	0.71406390095821
2.4640000000000	-0.65388859156929	0.71930128916084
2.4880000000000	-0.64710574288431	0.72447944223704
2.5120000000000	-0.64025802790384	0.72959741187190
2.5360000000000	-0.63334556064540	0.73465423623489
2.5600000000000	-0.62636846190304	0.73964893966166
2.5840000000000	-0.61932685957175	0.74458053233095
2.6080000000000	-0.61222088898732	0.74944800993655
2.6320000000000	-0.60505069328212	0.75425035335447
2.6560000000000	-0.59781642375755	0.75898652830543
2.6800000000000	-0.59051824027380	0.76365548501278
2.7040000000000	-0.58315631165763	0.76825615785603
2.7280000000000	-0.57573081612898	0.77278746502019
2.7520000000000	-0.56824194174701	0.77724830814100
2.7760000000000	-0.56068988687649	0.78163757194643
2.8000000000000	-0.55307486067538	0.78595412389459
2.8240000000000	-0.54539708360433	0.79019681380835
2.8480000000000	-0.53765678795900	0.79436447350699
2.8720000000000	-0.52985421842628	0.79845591643523
2.8960000000000	-0.52198963266506	0.80246993728997
2.9200000000000	-0.51406330191277	0.80640531164521
2.9440000000000	-0.50607551161860	0.81026079557554
2.9680000000000	-0.49802656210437	0.81403512527877
2.9920000000000	-0.48991676925426	0.81772701669814
3.0160000000000	-0.48174646523438	0.82133516514485
3.0400000000000	-0.47351599924341	0.82485824492139
3.0640000000000	-0.46522573829541	0.82829490894643
3.0880000000000	-0.45687606803608	0.83164378838218
3.1120000000000	-0.44846739359362	0.83490349226471
3.1360000000000	-0.44000014046558	0.83807260713850
3.1600000000000	-0.43147475544292	0.84114969669589
3.1840000000000	-0.42289170757269	0.84413330142265
3.2080000000000	-0.41425148916062	0.84702193825071
3.2320000000000	-0.40555461681519	0.84981410021928
3.2560000000000	-0.39680163253446	0.85250825614568
3.2800000000000	-0.38799310483720	0.85510285030725
3.3040000000000	-0.37912962993987	0.85759630213592
3.3280000000000	-0.37021183298092	0.85998700592695
3.3520000000000	-0.36124036929398	0.86227333056368
3.3760000000000	-0.35221592573157	0.86445361926008
3.4000000000000	-0.34313922204080	0.86652618932313
3.4240000000000	-0.33401101229289	0.86848933193718
3.4480000000000	-0.32483208636793	0.87034131197248
3.4720000000000	-0.31560327149664	0.87208036782047
3.4960000000000	-0.30632543386070	0.87370471125825
3.5200000000000	-0.29699948025344	0.87521252734518
3.5440000000000	-0.28762635980229	0.87660197435437
3.5680000000000	-0.27820706575485	0.87787118374245
3.5920000000000	-0.26874263732998	0.87901826016075
3.6160000000000	-0.25923416163566	0.88004128151151
3.6400000000000	-0.24968277565497	0.88093829905305
3.6640000000000	-0.24008966830187	0.88170733755767
3.6880000000000	-0.23045608254795	0.88234639552676
3.7120000000000	-0.22078331762177	0.88285344546745
3.7360000000000	-0.21107273128184	0.88322643423578
3.7600000000000	-0.20132574216449	0.88346328345123
3.7840000000000	-0.19154383220761	0.88356188998815
3.8080000000000	-0.18172854915129	0.88352012654959
3.8320000000000	-0.17188150911588	0.88333584232958
3.8560000000000	-0.16200439925827	0.88300686377010
3.8800000000000	-0.15209898050659	0.88253099541933
3.9040000000000	-0.14216709037352	0.88190602089818
3.9280000000000	-0.13221064584815	0.88112970398242
3.9520000000000	-0.12223164636588	0.88019978980791
3.9760000000000	-0.11223217685570	0.87911400620729
4.0000000000000	-0.10221441086388	0.87787006518619
4.0240000000000	-0.092180613752412	0.87646566454797
4.0480000000000	-0.082133145970570	0.87489848967617
4.0720000000000	-0.072074466397047	0.87316621548416
4.0960000000000	-0.062007135749972	0.87126650854193
4.1200000000000	-0.051933820061322	0.86919702939057
4.1440000000000	-0.041857294211741	0.86695543505493
4.1680000000000	-0.031780445521084	0.86453938176579
4.1920000000000	-0.021706277389301	0.86194652790284
4.2160000000000	-0.011637912981482	0.85917453717051
4.2400000000000	-0.0015785989500592	0.85622108201868
4.2640000000000	0.0084682908137614	0.85308384732078
4.2880000000000	0.018499251408218	0.84976053432222
4.3120000000000	0.028510643138813	0.84624886487190
4.3360000000000	0.038498687736788	0.84254658595031
4.3600000000000	0.048459464590499	0.83865147450748
4.3840000000000	0.058388907003254	0.83456134262437
4.4080000000000	0.068282798492456	0.83027404301118
4.4320000000000	0.078136769146421	0.82578747485625
4.4560000000000	0.087946292056687	0.82109959003887
4.4800000000000	0.097706679845276	0.81620839971930
4.5040000000000	0.10741308130804	0.81111198131893
4.5280000000000	0.11706047819702	0.80580848590307
4.5520000000000	0.12664368216650	0.80029614597837
4.5760000000000	0.13615733190951	0.79457328371617
4.6000000000000	0.14559589051339	0.78863831961218
4.6240000000000	0.15495364306517	0.78248978159193
4.6480000000000	0.16422469453953	0.77612631457021
4.6720000000000	0.17340296800448	0.76954669047138
4.6960000000000	0.18248220318177	0.76274981871561
4.7200000000000	0.19145595540166	0.75573475717454
4.7440000000000	0.20031759499351	0.74850072359747
4.7680000000000	0.20906030715624	0.74104710750692
4.7920000000000	0.21767709235455	0.73337348255982
4.8160000000000	0.22616076728928	0.72547961936737
4.8400000000000	0.23450396649206	0.71736549876362
4.8640000000000	0.24269914459640	0.70903132550891
4.8880000000000	0.25073857933937	0.70047754241060
4.9120000000000	0.25861437534940	0.69170484483890
4.9360000000000	0.26631846877713	0.68271419561130
4.9600000000000	0.27384263282771	0.67350684021364
4.9840000000000	0.28117848425320	0.66408432232079
5.0080000000000	0.28831749086476	0.65444849957379
5.0320000000000	0.29525098012405	0.64460155956450
5.0560000000000	0.30197014887283	0.63454603597199
5.0800000000000	0.30846607425891	0.62428482478829
5.1040000000000	0.31472972591509	0.61382120056392
5.1280000000000	0.32075197944538	0.60315883259617
5.1520000000000	0.32652363126997	0.59230180097570
5.1760000000000	0.33203541487678	0.58125461239899
5.2000000000000	0.33727801852279	0.57002221564645
5.2240000000000	0.34224210442299	0.55861001661798
5.2480000000000	0.34691832945836	0.54702389281006
5.2720000000000	0.35129736742694	0.53527020711037
5.2960000000000	0.35536993285362	0.52335582077881
5.3200000000000	0.35912680636458	0.51128810547643
5.3440000000000	0.36255886162202	0.49907495419716
5.3680000000000	0.36565709380268	0.48672479095127
5.3920000000000	0.36841264959091	0.47424657904404
5.4160000000000	0.37081685864325	0.46164982778912
5.4400000000000	0.37286126646598	0.44894459749248
5.4640000000000	0.37453766863156	0.43614150254104
5.4880000000000	0.37583814624240	0.42325171242951
5.5120000000000	0.37675510253286	0.41028695055988
5.5360000000000	0.37728130048184	0.39725949065105
5.5600000000000	0.37740990128915	0.38418215060052
5.5840000000000	0.37713450354948	0.37106828364723
5.6080000000000	0.37644918293838	0.35793176669319
5.6320000000000	0.37534853220500	0.34478698565345
5.6560000000000	0.37382770124739	0.33164881771733
5.6800000000000	0.37188243702782	0.31853261042015
5.7040000000000	0.36950912306787	0.30545415744380
5.7280000000000	0.36670481824724	0.29242967108525
5.7520000000000	0.36346729461542	0.27947575135635
5.7760000000000	0.35979507391303	0.26660935170415
5.8000000000000	0.35568746248956	0.25384774136910
5.8240000000000	0.35114458429642	0.24120846442938
5.8480000000000	0.34616741163037	0.22870929561110
5.8720000000000	0.34075779330075	0.21636819297800
5.8960000000000	0.33491847989697	0.20420324764890
5.9200000000000	0.32865314583883	0.19223263072649
5.9440000000000	0.32196640790304	0.18047453765639
5.9680000000000	0.31486383993390	0.16894713027105
5.9920000000000	0.30735198346527	0.15766847680732
6.0160000000000	0.29943835400421	0.14665649021966
6.0400000000000	0.29113144275458	0.13592886514216
6.0640000000000	0.28244071359022	0.12550301388136
6.0880000000000	0.27337659512317	0.11539600184718
6.1120000000000	0.26395046775160	0.10562448285141
6.1360000000000	0.25417464561393	0.096204634720980
6.1600000000000	0.24406235342114	0.087152095686373
6.1840000000000	0.23362769818574	0.078481902013659
6.2080000000000	0.22288563591477	0.070208427351561
6.2320000000000	0.21185193338314	0.062345324261998
6.2560000000000	0.20054312515334	0.054905468394031
6.2800000000000	0.18897646605606	0.047900905746759
6.3040000000000	0.17716987939349	0.041342803446478
6.3280000000000	0.16514190117242	0.035241404437685
6.3520000000000	0.15291162071626	0.029605986456371
6.3760000000000	0.14049861804377	0.024444825617947
6.4000000000000	0.12792289843656	0.019765164911596
6.4240000000000	0.11520482464706	0.015573187848320
6.4480000000000	0.10236504722271	0.011873997462175
6.4720000000000	0.089424433440612	0.0086716008138119
6.4960000000000	0.076403995359535	0.0059688990932975
6.5200000000000	0.063324817502150	0.0037676833659569
6.5440000000000	0.050207984680733	0.0020686359516138
6.5680000000000	0.037074510473217	0.00087133737477334
6.5920000000000	0.023945266844386	0.00017427877189328
6.6160000000000	0.010840915389039	-2.5120407409471e-05
6.6400000000000	-0.0022181593493292	0.00026951038519453
6.6640000000000	-0.015211914059088	0.0010535204140695
6.6880000000000	-0.028120707947559	0.0023212698171680
6.7120000000000	-0.040925360778407	0.0040661659777907
6.7360000000000	-0.053607207342543	0.0062807037549028
6.7600000000000	-0.066148148087775	0.0089565091918351
6.7840000000000	-0.078530695676078	0.012084386303976
6.8080000000000	-0.090738017282113	0.015654366532179
6.8320000000000	-0.10275397249170	0.019655760440061
6.8560000000000	-0.11456314670367	0.024077211229988
6.8800000000000	-0.12615087998240	0.028906749654199
6.9040000000000	-0.13750329135058	0.034131849903853
6.9280000000000	-0.14860729855208	0.039739486069466
6.9520000000000	-0.15945063335268	0.045716188780903
6.9760000000000	-0.17002185248128	0.052048101653277
7.0000000000000	-0.18031034434611	0.058721037186331
7.0240000000000	-0.19030633168911	0.065720531788725
7.0480000000000	-0.20000087036612	0.073031899624510
7.0720000000000	-0.20938584446253	0.080640285006560
7.0960000000000	-0.21845395797100	0.088530713090272
7.1200000000000	-0.22719872327256	0.096688138650079
7.1440000000000	-0.23561444667258	0.10509749275074
7.1680000000000	-0.24369621125048	0.11374372715459
7.1920000000000	-0.25143985728611	0.12261185633464
7.2160000000000	-0.25884196052662	0.13168699699127
7.2400000000000	-0.26589980855613	0.14095440499696
7.2640000000000	-0.27261137552634	0.15039950971863
7.2880000000000	-0.27897529549965	0.16000794569141
7.3120000000000	-0.28499083464845	0.16976558163905
7.3360000000000	-0.29065786254386	0.17965854685697
7.3600000000000	-0.29597682275637	0.18967325499207
7.3840000000000	-0.30094870297797	0.19979642526971
7.4080000000000	-0.30557500486238	0.21001510123317
7.4320000000000	-0.30985771376601	0.22031666707297
7.4560000000000	-0.31379926855792	0.23068886163464
7.4800000000000	-0.31740253165262	0.24111979020215
7.5040000000000	-0.32067075940506	0.25159793416160
7.5280000000000	-0.32360757299281	0.26211215865538
7.5520000000000	-0.32621692989622	0.27265171834106
7.5760000000000	-0.32850309607384	0.28320626137216
7.6000000000000	-0.33047061891724	0.29376583171927
7.6240000000000	-0.33212430105662	0.30432086995039
7.6480000000000	-0.33346917507687	0.31486221258878
7.6720000000000	-0.33451047919252	0.32538109016482
7.6960000000000	-0.33525363391947	0.33586912407614
7.7200000000000	-0.33570421977182	0.34631832236720
7.7440000000000	-0.33586795600309	0.35672107453597
7.7680000000000	-0.33575068040310	0.36707014547103
7.7920000000000	-0.33535833015425	0.37735866861838
7.8160000000000	-0.33469692374446	0.38758013847197
7.8400000000000	-0.33377254392792	0.39772840247757
7.8640000000000	-0.33259132171980	0.40779765243406
7.8880000000000	-0.33115942140631	0.41778241547129
7.9120000000000	-0.32948302654766	0.42767754467845
7.9360000000000	-0.32756832694803	0.43747820945157
7.9600000000000	-0.32542150656394	0.44717988562399
7.9840000000000	-0.32304873232007	0.45677834543826
8.0080000000000	-0.32045614379957	0.46626964741344
8.0320000000000	-0.31764984377477	0.47565012615686
8.0560000000000	-0.31463588954290	0.48491638216501
8.0800000000000	-0.31142028503089	0.49406527165379
8.1040000000000	-0.30800897363284	0.50309389645448
8.1280000000000	-0.30440783174367	0.51199959400758
8.1520000000000	-0.30062266295276	0.52077992748342
8.1760000000000	-0.29665919286136	0.52943267605448
8.2000000000000	-0.29252306448854	0.53795582534170
8.2240000000000	-0.28821983423082	0.54634755805361
8.2480000000000	-0.28375496834152	0.55460624483459
8.2720000000000	-0.27913383989702	0.56273043533584
8.2960000000000	-0.27436172621766	0.57071884952047
8.3200000000000	-0.26944380671282	0.57857036921164
8.3440000000000	-0.26438516112008	0.58628402989106
8.3680000000000	-0.25919076811028	0.59385901275302
8.3920000000000	-0.25386550423096	0.60129463701772
8.4160000000000	-0.24841414316238	0.60859035250608
8.4400000000000	-0.24284135526102	0.61574573247688
8.4640000000000	-0.23715170736734	0.62276046672599
8.4880000000000	-0.23134966285520	0.62963435494622
8.5120000000000	-0.22543958190201	0.63636730034568
8.5360000000000	-0.21942572195959	0.64295930352134
8.5600000000000	-0.21331223840699	0.64941045658417
8.5840000000000	-0.20710318536764	0.65572093753125
8.6080000000000	-0.20080251667432	0.66189100486011
8.6320000000000	-0.19441408696632	0.66792099241968
8.6560000000000	-0.18794165290453	0.67381130449229
8.6800000000000	-0.18138887449064	0.67956241110060
8.7040000000000	-0.17475931647823	0.68517484353299
8.7280000000000	-0.16805644986369	0.69064919008129
8.7520000000000	-0.16128365344646	0.69598609198389
8.7760000000000	-0.15444421544822	0.70118623956767
8.8000000000000	-0.14754133518209	0.70625036858206
8.8240000000000	-0.14057812476294	0.71117925671836
8.8480000000000	-0.13355761085117	0.71597372030755
8.8720000000000	-0.12648273642264	0.72063461119007
8.8960000000000	-0.11935636255810	0.72516281375065
8.9200000000000	-0.11218127024609	0.72955924211194
8.9440000000000	-0.10496016219373	0.73382483748026
8.9680000000000	-0.097695664640399	0.73796056563729
8.9920000000000	-0.090390329169814	0.74196741457149
9.0160000000000	-0.083046634516186	0.74584639224319
9.0400000000000	-0.075666988360916	0.74959852447742
9.0640000000000	-0.068253729116400	0.75322485297897
9.0880000000000	-0.060809127693951	0.75672643346381
9.1120000000000	-0.053335389253198	0.76010433390173
9.1360000000000	-0.045834654930573	0.76335963286491
9.1600000000000	-0.038309003544812	0.76649341797738
9.1840000000000	-0.030760453277650	0.76950678446048
9.2080000000000	-0.023190963328111	0.77240083376968
9.2320000000000	-0.015602435539035	0.77517667231825
9.2560000000000	-0.0079967159946706	0.77783541028341
9.2800000000000	-0.00037559658836370	0.78037816049079
9.3040000000000	0.0072591834404795	0.78280603737322
9.3280000000000	0.014905936000796	0.78512015599994
9.3520000000000	0.022563022676155	0.78732163117275
9.3760000000000	0.030228853283314	0.78941157658522
9.4000000000000	0.037901884463299	0.79139110404202
9.4240000000000	0.045580618305169	0.79326132273475
9.4480000000000	0.053263601002535	0.79502333857148
9.4720000000000	0.060949421542786	0.79667825355694
9.4960000000000	0.068636710428941	0.79822716522048
9.5200000000000	0.076324138433922	0.79967116608933
9.5440000000000	0.084010415387044	0.80101134320444
9.5680000000000	0.091694288992396	0.80224877767651
9.5920000000000	0.099374543678786	0.80338454427995
9.6160000000000	0.10704999948085	0.80441971108254
9.6400000000000	0.11471951095093	0.80535533910870
9.6640000000000	0.12238196610120	0.80619248203437
9.6880000000000	0.13003628537560	0.80693218591166
9.7120000000000	0.13768142065108	0.80757548892142
9.7360000000000	0.14531635426756	0.80812342115210
9.7600000000000	0.15294009808609	0.80857700440322
9.7840000000000	0.16055169257465	0.80893725201192
9.8080000000000	0.16815020592099	0.80920516870127
9.8320000000000	0.17573473317196	0.80938175044873
9.8560000000000	0.18330439539866	0.80946798437374
9.8800000000000	0.19085833888699	0.80946484864293
9.9040000000000	0.19839573435269	0.80937331239204
9.9280000000000	0.20591577618065	0.80919433566325
9.9520000000000	0.21341768168758	0.80892886935699
9.9760000000000	0.22090069040764	0.80857785519721
10.000000000000	0.22836406340030	0.80814222570919
10.024000000000	0.23580708257998	0.80762290420896
10.048000000000	0.24322905006678	0.80702080480361
10.072000000000	0.25062928755776	0.80633683240163
10.096000000000	0.25800713571825	0.80557188273246
10.120000000000	0.26536195359256	0.80472684237481
10.144000000000	0.27269311803360	0.80380258879276
