#Parameters = {d=9.5051559838931; d_passa_faixa=11.118252561128; e=3.984381e-11; l=5; p=10.89725559975; p_passa_faixa=11.773094507628; phi=0; r=281.16907657059; theta=0; u=1.2566e-06; w=1.9837076625897; w_passa_faixa=0.13385049465315; z_fss=0.2}
#"Frequency / GHz"	"SZmax(2),Zmax(2) (2) [Real/Imaginary Part] [Re]"	"SZmax(2),Zmax(2) (2) [Real/Imaginary Part] [Im]"
#---------------------------------------------------------------------------------------------------------------------
1.0000000000000	-0.046972976184742	-0.11716219768817
1.0240000000000	-0.049489299542615	-0.11941279027034
1.0480000000000	-0.052057744262941	-0.12162100286770
1.0720000000000	-0.054677634116392	-0.12378596746667
1.0960000000000	-0.057348280768588	-0.12590682631529
1.1200000000000	-0.060068983902767	-0.12798273205111
1.1440000000000	-0.062839031342905	-0.13001284782920
1.1680000000000	-0.065657699177468	-0.13199634745043
1.1920000000000	-0.068524251883748	-0.13393241548982
1.2160000000000	-0.071437942453013	-0.13582024742532
1.2400000000000	-0.074398012516426	-0.13765904976653
1.2640000000000	-0.077403692471966	-0.13944804018383
1.2880000000000	-0.080454201612251	-0.14118644763757
1.3120000000000	-0.083548748253558	-0.14287351250750
1.3360000000000	-0.086686529865928	-0.14450848672231
1.3600000000000	-0.089866733204563	-0.14609063388937
1.3840000000000	-0.093088534442564	-0.14761922942450
1.4080000000000	-0.096351099305052	-0.14909356068188
1.4320000000000	-0.099653583204792	-0.15051292708403
1.4560000000000	-0.10299513137938	-0.15187664025173
1.4800000000000	-0.10637487903005	-0.15318402413403
1.5040000000000	-0.10979195146224	-0.15443441513810
1.5280000000000	-0.11324546422785	-0.15562716225903
1.5520000000000	-0.11673452326937	-0.15676162720952
1.5760000000000	-0.12025822506603	-0.15783718454925
1.6000000000000	-0.12381565678171	-0.15885322181416
1.6240000000000	-0.12740589641508	-0.15980913964532
1.6480000000000	-0.13102801295168	-0.16070435191741
1.6720000000000	-0.13468106651831	-0.16153828586696
1.6960000000000	-0.13836410853943	-0.16231038221988
1.7200000000000	-0.14207618189592	-0.16302009531860
1.7440000000000	-0.14581632108621	-0.16366689324855
1.7680000000000	-0.14958355238956	-0.16425025796395
1.7920000000000	-0.15337689403194	-0.16476968541288
1.8160000000000	-0.15719535635416	-0.16522468566149
1.8400000000000	-0.16103794198261	-0.16561478301735
1.8640000000000	-0.16490364600241	-0.16593951615183
1.8880000000000	-0.16879145613318	-0.16619843822140
1.9120000000000	-0.17270035290725	-0.16639111698776
1.9360000000000	-0.17662930985062	-0.16651713493694
1.9600000000000	-0.18057729366637	-0.16657608939690
1.9840000000000	-0.18454326442089	-0.16656759265391
2.0080000000000	-0.18852617573258	-0.16649127206736
2.0320000000000	-0.19252497496337	-0.16634677018310
2.0560000000000	-0.19653860341281	-0.16613374484519
2.0800000000000	-0.20056599651494	-0.16585186930585
2.1040000000000	-0.20460608403782	-0.16550083233361
2.1280000000000	-0.20865779028569	-0.16508033831966
2.1520000000000	-0.21272003430401	-0.16459010738221
2.1760000000000	-0.21679173008697	-0.16402987546865
2.2000000000000	-0.22087178678790	-0.16339939445572
2.2240000000000	-0.22495910893219	-0.16269843224737
2.2480000000000	-0.22905259663299	-0.16192677287027
2.2720000000000	-0.23315114580954	-0.16108421656692
2.2960000000000	-0.23725364840807	-0.16017057988624
2.3200000000000	-0.24135899262543	-0.15918569577155
2.3440000000000	-0.24546606313518	-0.15812941364588
2.3680000000000	-0.24957374131634	-0.15700159949451
2.3920000000000	-0.25368090548461	-0.15580213594454
2.4160000000000	-0.25778643112613	-0.15453092234166
2.4400000000000	-0.26188919113365	-0.15318787482374
2.4640000000000	-0.26598805604515	-0.15177292639135
2.4880000000000	-0.27008189428487	-0.15028602697509
2.5120000000000	-0.27416957240657	-0.14872714349951
2.5360000000000	-0.27824995533919	-0.14709625994378
2.5600000000000	-0.28232190663467	-0.14539337739877
2.5840000000000	-0.28638428871796	-0.14361851412064
2.6080000000000	-0.29043596313916	-0.14177170558081
2.6320000000000	-0.29447579082773	-0.13985300451213
2.6560000000000	-0.29850263234866	-0.13786248095139
2.6800000000000	-0.30251534816065	-0.13580022227783
2.7040000000000	-0.30651279887603	-0.13366633324779
2.7280000000000	-0.31049384552264	-0.13146093602530
2.7520000000000	-0.31445734980729	-0.12918417020864
2.7760000000000	-0.31840217438094	-0.12683619285268
2.8000000000000	-0.32232718310545	-0.12441717848696
2.8240000000000	-0.32623124132179	-0.12192731912961
2.8480000000000	-0.33011321611968	-0.11936682429677
2.8720000000000	-0.33397197660858	-0.11673592100770
2.8960000000000	-0.33780639418987	-0.11403485378533
2.9200000000000	-0.34161534283015	-0.11126388465226
2.9440000000000	-0.34539769933578	-0.10842329312232
2.9680000000000	-0.34915234362812	-0.10551337618727
2.9920000000000	-0.35287815901986	-0.10253444829893
3.0160000000000	-0.35657403249200	-0.099486841346542
3.0400000000000	-0.36023885497159	-0.096370904629341
3.0640000000000	-0.36387152161000	-0.093187004824288
3.0880000000000	-0.36747093206164	-0.089935525948860
3.1120000000000	-0.37103599076312	-0.086616869319042
3.1360000000000	-0.37456560721266	-0.083231453502317
3.1600000000000	-0.37805869624966	-0.079779714265629
3.1840000000000	-0.38151417833425	-0.076262104518378
3.2080000000000	-0.38493097982692	-0.072679094250354
3.2320000000000	-0.38830803326793	-0.069031170464659
3.2560000000000	-0.39164427765643	-0.065318837105461
3.2800000000000	-0.39493865872920	-0.061542614980693
3.3040000000000	-0.39819012923888	-0.057703041679605
3.3280000000000	-0.40139764923174	-0.053800671485226
3.3520000000000	-0.40456018632446	-0.049836075281628
3.3760000000000	-0.40767671598035	-0.045809840456080
3.4000000000000	-0.41074622178440	-0.041722570796019
3.4240000000000	-0.41376769571742	-0.037574886380905
3.4480000000000	-0.41674013842891	-0.033367423468875
3.4720000000000	-0.41966255950867	-0.029100834378293
3.4960000000000	-0.42253397775701	-0.024775787364148
3.5200000000000	-0.42535342145337	-0.020392966489313
3.5440000000000	-0.42811992862340	-0.015953071490712
3.5680000000000	-0.43083254730415	-0.011456817640392
3.5920000000000	-0.43349033580750	-0.0069049356015083
3.6160000000000	-0.43609236298156	-0.0022981712792752
3.6400000000000	-0.43863770846992	0.0023627143331165
3.6640000000000	-0.44112546296877	0.0070769453135435
3.6880000000000	-0.44355472848159	0.011843730975004
3.7120000000000	-0.44592461857146	0.016662266034549
3.7360000000000	-0.44823425861078	0.021531730787107
3.7600000000000	-0.45048278602837	0.026451291284167
3.7840000000000	-0.45266935055371	0.031420099517229
3.8080000000000	-0.45479311445832	0.036437293606033
3.8320000000000	-0.45685325279419	0.041501997991464
3.8560000000000	-0.45884895362901	0.046613323633102
3.8800000000000	-0.46077941827829	0.051770368211366
3.9040000000000	-0.46264386153411	0.056972216334193
3.9280000000000	-0.46444151189037	0.062217939748168
3.9520000000000	-0.46617161176469	0.067506597554050
3.9760000000000	-0.46783341771655	0.072837236426658
4.0000000000000	-0.46942620066174	0.078208890839008
4.0240000000000	-0.47094924608303	0.083620583290626
4.0480000000000	-0.47240185423681	0.089071324540005
4.0720000000000	-0.47378334035595	0.094560113841080
4.0960000000000	-0.47509303484826	0.10008593918369
4.1200000000000	-0.47633028349100	0.10564777753786
4.1440000000000	-0.47749444762097	0.11124459510198
4.1680000000000	-0.47858490432034	0.11687534755455
4.1920000000000	-0.47960104659795	0.12253898030969
4.2160000000000	-0.48054228356611	0.12823442877607
4.2400000000000	-0.48140804061277	0.13396061861930
4.2640000000000	-0.48219775956910	0.13971646602772
4.2880000000000	-0.48291089887217	0.14550087798134
4.3120000000000	-0.48354693372290	0.15131275252399
4.3360000000000	-0.48410535623903	0.15715097903850
4.3600000000000	-0.48458567560325	0.16301443852479
4.3840000000000	-0.48498741820616	0.16890200388087
4.4080000000000	-0.48531012778418	0.17481254018648
4.4320000000000	-0.48555336555235	0.18074490498946
4.4560000000000	-0.48571671033190	0.18669794859454
4.4800000000000	-0.48579975867247	0.19267051435461
4.5040000000000	-0.48580212496917	0.19866143896429
4.5280000000000	-0.48572344157415	0.20466955275561
4.5520000000000	-0.48556335890279	0.21069367999589
4.5760000000000	-0.48532154553449	0.21673263918747
4.6000000000000	-0.48499768830786	0.22278524336935
4.6240000000000	-0.48459149241052	0.22885030042054
4.6480000000000	-0.48410268146318	0.23492661336505
4.6720000000000	-0.48353099759824	0.24101298067832
4.6960000000000	-0.48287620153273	0.24710819659512
4.7200000000000	-0.48213807263555	0.25321105141867
4.7440000000000	-0.48131640898909	0.25932033183084
4.7680000000000	-0.48041102744513	0.26543482120353
4.7920000000000	-0.47942176367505	0.27155329991079
4.8160000000000	-0.47834847221426	0.27767454564187
4.8400000000000	-0.47719102650091	0.28379733371483
4.8640000000000	-0.47594931890892	0.28992043739078
4.8880000000000	-0.47462326077511	0.29604262818851
4.9120000000000	-0.47321278242073	0.30216267619942
4.9360000000000	-0.47171783316707	0.30827935040268
4.9600000000000	-0.47013838134548	0.31439141898045
4.9840000000000	-0.46847441430147	0.32049764963301
5.0080000000000	-0.46672593839322	0.32659680989381
5.0320000000000	-0.46489297898421	0.33268766744417
5.0560000000000	-0.46297558043026	0.33876899042760
5.0800000000000	-0.46097380606076	0.34483954776361
5.1040000000000	-0.45888773815428	0.35089810946089
5.1280000000000	-0.45671747790850	0.35694344692973
5.1520000000000	-0.45446314540444	0.36297433329358
5.1760000000000	-0.45212487956520	0.36898954369969
5.2000000000000	-0.44970283810896	0.37498785562853
5.2240000000000	-0.44719719749658	0.38096804920216
5.2480000000000	-0.44460815287352	0.38692890749119
5.2720000000000	-0.44193591800645	0.39286921682037
5.2960000000000	-0.43918072521425	0.39878776707263
5.3200000000000	-0.43634282529369	0.40468335199145
5.3440000000000	-0.43342248743979	0.41055476948160
5.3680000000000	-0.43041999916074	0.41640082190788
5.3920000000000	-0.42733566618769	0.42222031639204
5.4160000000000	-0.42416981237921	0.42801206510759
5.4400000000000	-0.42092277962066	0.43377488557244
5.4640000000000	-0.41759492771842	0.43950760093932
5.4880000000000	-0.41418663428907	0.44520904028388
5.5120000000000	-0.41069829464359	0.45087803889024
5.5360000000000	-0.40713032166657	0.45651343853416
5.5600000000000	-0.40348314569062	0.46211408776339
5.5840000000000	-0.39975721436594	0.46767884217550
5.6080000000000	-0.39595299252514	0.47320656469270
5.6320000000000	-0.39207096204338	0.47869612583393
5.6560000000000	-0.38811162169394	0.48414640398387
5.6800000000000	-0.38407548699920	0.48955628565890
5.7040000000000	-0.37996309007721	0.49492466576992
5.7280000000000	-0.37577497948385	0.50025044788198
5.7520000000000	-0.37151172005068	0.50553254447051
5.7760000000000	-0.36717389271853	0.51076987717425
5.8000000000000	-0.36276209436697	0.51596137704470
5.8240000000000	-0.35827693763969	0.52110598479202
5.8480000000000	-0.35371905076586	0.52620265102738
5.8720000000000	-0.34908907737761	0.53125033650159
5.8960000000000	-0.34438767632366	0.53624801234006
5.9200000000000	-0.33961552147917	0.54119466027386
5.9440000000000	-0.33477330155202	0.54608927286708
5.9680000000000	-0.32986171988539	0.55093085374011
5.9920000000000	-0.32488149425694	0.55571841778910
6.0160000000000	-0.31983335667456	0.56045099140122
6.0400000000000	-0.31471805316881	0.56512761266604
6.0640000000000	-0.30953634358212	0.56974733158258
6.0880000000000	-0.30428900135489	0.57430921026231
6.1120000000000	-0.29897681330848	0.57881232312788
6.1360000000000	-0.29360057942538	0.58325575710758
6.1600000000000	-0.28816111262633	0.58763861182544
6.1840000000000	-0.28265923854486	0.59195999978708
6.2080000000000	-0.27709579529905	0.59621904656104
6.2320000000000	-0.27147163326071	0.60041489095577
6.2560000000000	-0.26578761482211	0.60454668519212
6.2800000000000	-0.26004461416031	0.60861359507134
6.3040000000000	-0.25424351699918	0.61261480013855
6.3280000000000	-0.24838522036917	0.61654949384166
6.3520000000000	-0.24247063236508	0.62041688368570
6.3760000000000	-0.23650067190169	0.62421619138259
6.4000000000000	-0.23047626846755	0.62794665299620
6.4240000000000	-0.22439836187692	0.63160751908286
6.4480000000000	-0.21826790201991	0.63519805482716
6.4720000000000	-0.21208584861111	0.63871754017306
6.4960000000000	-0.20585317093658	0.64216526995039
6.5200000000000	-0.19957084759938	0.64554055399650
6.5440000000000	-0.19323986626380	0.64884271727337
6.5680000000000	-0.18686122339828	0.65207109997991
6.5920000000000	-0.18043592401719	0.65522505765950
6.6160000000000	-0.17396498142148	0.65830396130291
6.6400000000000	-0.16744941693841	0.66130719744644
6.6640000000000	-0.16089025966033	0.66423416826526
6.6880000000000	-0.15428854618268	0.66708429166218
6.7120000000000	-0.14764532034124	0.66985700135154
6.7360000000000	-0.14096163294884	0.67255174693851
6.7600000000000	-0.13423854153143	0.67516799399356
6.7840000000000	-0.12747711006381	0.67770522412238
6.8080000000000	-0.12067840870488	0.68016293503096
6.8320000000000	-0.11384351353276	0.68254064058609
6.8560000000000	-0.10697350627961	0.68483787087116
6.8800000000000	-0.10006947406645	0.68705417223735
6.9040000000000	-0.093132509137847	0.68918910735015
6.9280000000000	-0.086163708596845	0.69124225523127
6.9520000000000	-0.079164174139889	0.69321321129605
6.9760000000000	-0.072135011792093	0.69510158738615
7.0000000000000	-0.065077331642787	0.69690701179785
7.0240000000000	-0.057992247581487	0.69862912930574
7.0480000000000	-0.050880877034332	0.70026760118198
7.0720000000000	-0.043744340701107	0.70182210521103
7.0960000000000	-0.036583762292881	0.70329233570003
7.1200000000000	-0.029400268270390	0.70467800348469
7.1440000000000	-0.022194987583189	0.70597883593094
7.1680000000000	-0.014969051409703	0.70719457693206
7.1920000000000	-0.0077235928981988	0.70832498690172
7.2160000000000	-0.00045974690877759	0.70936984276258
7.2400000000000	0.0068213502435249	0.71032893793078
7.2640000000000	0.014118561044504	0.71120208229619
7.2880000000000	0.021430747035306	0.71198910219850
7.3120000000000	0.028756769065652	0.71268984039927
7.3360000000000	0.036095487545700	0.71330415604981
7.3600000000000	0.043445762696478	0.71383192465518
7.3840000000000	0.050806454798810	0.71427303803403
7.4080000000000	0.058176424440696	0.71462740427470
7.4320000000000	0.065554532763057	0.71489494768727
7.4560000000000	0.072939641703805	0.71507560875189
7.4800000000000	0.080330614240165	0.71516934406322
7.5040000000000	0.087726314629197	0.71517612627120
7.5280000000000	0.095125608646450	0.71509594401810
7.5520000000000	0.10252736382272	0.71492880187188
7.5760000000000	0.10993044967879	0.71467472025606
7.6000000000000	0.11733373795824	0.71433373537592
7.6240000000000	0.12473610285805	0.71390589914134
7.6480000000000	0.13213642125716	0.71339127908607
7.6720000000000	0.13953357294289	0.71278995828376
7.6960000000000	0.14692644083497	0.71210203526052
7.7200000000000	0.15431391120751	0.71132762390434
7.7440000000000	0.16169487390848	0.71046685337116
7.7680000000000	0.16906822257691	0.70951986798793
7.7920000000000	0.17643285485763	0.70848682715237
7.8160000000000	0.18378767261365	0.70736790522992
7.8400000000000	0.19113158213593	0.70616329144746
7.8640000000000	0.19846349435071	0.70487318978430
7.8880000000000	0.20578232502424	0.70349781886012
7.9120000000000	0.21308699496491	0.70203741182027
7.9360000000000	0.22037643022272	0.70049221621816
7.9600000000000	0.22764956228611	0.69886249389504
7.9840000000000	0.23490532827607	0.69714852085713
8.0080000000000	0.24214267113748	0.69535058715013
8.0320000000000	0.24936053982775	0.69346899673128
8.0560000000000	0.25655788950258	0.69150406733892
8.0800000000000	0.26373368169895	0.68945613035964
8.1040000000000	0.27088688451527	0.68732553069312
8.1280000000000	0.27801647278859	0.68511262661471
8.1520000000000	0.28512142826895	0.68281778963576
8.1760000000000	0.29220073979083	0.68044140436179
8.2000000000000	0.29925340344158	0.67798386834861
8.2240000000000	0.30627842272699	0.67544559195638
8.2480000000000	0.31327480873377	0.67282699820171
8.2720000000000	0.32024158028910	0.67012852260781
8.2960000000000	0.32717776411713	0.66735061305287
8.3200000000000	0.33408239499248	0.66449372961655
8.3440000000000	0.34095451589063	0.66155834442485
8.3680000000000	0.34779317813530	0.65854494149321
8.3920000000000	0.35459744154277	0.65545401656809
8.4160000000000	0.36136637456308	0.65228607696694
8.4400000000000	0.36809905441815	0.64904164141669
8.4640000000000	0.37479456723680	0.64572123989089
8.4880000000000	0.38145200818668	0.64232541344536
8.5120000000000	0.38807048160307	0.63885471405261
8.5360000000000	0.39464910111456	0.63530970443502
8.5600000000000	0.40118698976563	0.63169095789678
8.5840000000000	0.40768328013606	0.62799905815470
8.6080000000000	0.41413711445729	0.62423459916803
8.6320000000000	0.42054764472559	0.62039818496716
8.6560000000000	0.42691403281211	0.61649042948141
8.6800000000000	0.43323545056985	0.61251195636590
8.7040000000000	0.43951107993745	0.60846339882763
8.7280000000000	0.44574011303991	0.60434539945068
8.7520000000000	0.45192175228620	0.60015861002079
8.7760000000000	0.45805521046366	0.59590369134912
8.8000000000000	0.46413971082950	0.59158131309554
8.8240000000000	0.47017448719897	0.58719215359127
8.8480000000000	0.47615878403065	0.58273689966098
8.8720000000000	0.48209185650850	0.57821624644449
8.8960000000000	0.48797297062098	0.57363089721806
8.9200000000000	0.49380140323701	0.56898156321530
8.9440000000000	0.49957644217895	0.56426896344775
8.9680000000000	0.50529738629253	0.55949382452530
8.9920000000000	0.51096354551373	0.55465688047631
9.0160000000000	0.51657424093273	0.54975887256763
9.0400000000000	0.52212880485482	0.54480054912454
9.0640000000000	0.52762658085833	0.53978266535057
9.0880000000000	0.53306692384965	0.53470598314740
9.1120000000000	0.53844920011526	0.52957127093472
9.1360000000000	0.54377278737090	0.52437930347028
9.1600000000000	0.54903707480777	0.51913086166995
9.1840000000000	0.55424146313593	0.51382673242811
9.2080000000000	0.55938536462475	0.50846770843817
9.2320000000000	0.56446820314058	0.50305458801336
9.2560000000000	0.56948941418162	0.49758817490791
9.2800000000000	0.57444844490990	0.49206927813856
9.3040000000000	0.57934475418061	0.48649871180642
9.3280000000000	0.58417781256857	0.48087729491936
9.3520000000000	0.58894710239202	0.47520585121481
9.3760000000000	0.59365211773377	0.46948520898318
9.4000000000000	0.59829236445952	0.46371620089172
9.4240000000000	0.60286736023369	0.45789966380912
9.4480000000000	0.60737663453253	0.45203643863067
9.4720000000000	0.61181972865465	0.44612737010410
9.4960000000000	0.61619619572900	0.44017330665620
9.5200000000000	0.62050560072028	0.43417510022013
9.5440000000000	0.62474752043184	0.42813360606356
9.5680000000000	0.62892154350609	0.42204968261760
9.5920000000000	0.63302727042248	0.41592419130664
9.6160000000000	0.63706431349300	0.40975799637905
9.6400000000000	0.64103229685530	0.40355196473876
9.6640000000000	0.64493085646346	0.39730696577790
9.6880000000000	0.64875964007637	0.39102387121034
9.7120000000000	0.65251830724387	0.38470355490625
9.7360000000000	0.65620652929053	0.37834689272779
9.7600000000000	0.65982398929723	0.37195476236578
9.7840000000000	0.66337038208051	0.36552804317748
9.8080000000000	0.66684541416972	0.35906761602560
9.8320000000000	0.67024880378206	0.35257436311834
9.8560000000000	0.67358028079543	0.34604916785067
9.8800000000000	0.67683958671922	0.33949291464686
9.9040000000000	0.68002647466307	0.33290648880412
9.9280000000000	0.68314070930356	0.32629077633766
9.9520000000000	0.68618206684892	0.31964666382687
9.9760000000000	0.68915033500179	0.31297503826288
10.000000000000	0.69204531292005	0.30627678689746
10.024000000000	0.69486681117570	0.29955279709322
10.048000000000	0.69761465171201	0.29280395617513
10.072000000000	0.70028866779866	0.28603115128357
10.096000000000	0.70288870398526	0.27923526922858
